(1700626760.032375) can0 7E0#0322128C00000000
(1700626760.036541) can0 7E8#0762128C000002DA
(1700626760.123333) can0 7DF#02010CAAAAAAAAAA
(1700626760.126477) can0 7E8#04410C0DAE000000
(1700626760.214183) can0 7E0#0322128C00000000
(1700626760.216518) can0 7E8#0762128C0000031F
(1700626760.305126) can0 7DF#02010CAAAAAAAAAA
(1700626760.306472) can0 7E8#04410C0C14000000
(1700626760.395923) can0 7E0#0322128C00000000
(1700626760.406541) can0 7E8#0762128C0000047E
(1700626760.486845) can0 7DF#02010CAAAAAAAAAA
(1700626760.496444) can0 7E8#04410C0D12000000
(1700626760.577690) can0 7E0#0322128C00000000
(1700626760.586574) can0 7E8#0762128C000003E8
(1700626760.668632) can0 7DF#02010CAAAAAAAAAA
(1700626760.676443) can0 7E8#04410C1120000000
(1700626760.759457) can0 7E0#0322128C00000000
(1700626760.766503) can0 7E8#0762128C000002FE
(1700626760.850393) can0 7DF#02010CAAAAAAAAAA
(1700626760.856442) can0 7E8#04410C15F0000000
(1700626760.941278) can0 7E0#0322128C00000000
(1700626760.946501) can0 7E8#0762128C000002B2
(1700626761.032202) can0 7DF#02010CAAAAAAAAAA
(1700626761.036575) can0 7E8#04410C151C000000
(1700626761.123013) can0 7E0#0322128C00000000
(1700626761.126673) can0 7E8#0762128C00000293
(1700626761.213952) can0 7DF#02010CAAAAAAAAAA
(1700626761.216518) can0 7E8#04410C151C000000
(1700626761.304783) can0 7E0#0322128C00000000
(1700626761.306472) can0 7E8#0762128C000004C8
(1700626761.395736) can0 7DF#02010CAAAAAAAAAA
(1700626761.406404) can0 7E8#04410C1510000000
(1700626761.486539) can0 7E0#0322128C00000000
(1700626761.496450) can0 7E8#0762128C00000629
(1700626761.577475) can0 7DF#02010CAAAAAAAAAA
(1700626761.586378) can0 7E8#04410C15C4000000
(1700626761.668321) can0 7E0#0322128C00000000
(1700626761.676435) can0 7E8#0762128C000005E4
(1700626761.759269) can0 7DF#02010CAAAAAAAAAA
(1700626761.766376) can0 7E8#04410C1548000000
(1700626761.850124) can0 7E0#0322128C00000000
(1700626761.856427) can0 7E8#0762128C0000074D
(1700626761.941007) can0 7DF#02010CAAAAAAAAAA
(1700626761.946376) can0 7E8#04410C1514000000
(1700626762.031856) can0 7E0#0322128C00000000
(1700626762.036626) can0 7E8#0762128C00000865
(1700626762.122765) can0 7DF#02010CAAAAAAAAAA
(1700626762.126763) can0 7E8#04410C151C000000
(1700626762.213599) can0 7E0#0322128C00000000
(1700626762.216417) can0 7E8#0762128C0000098C
(1700626762.304623) can0 7DF#02010CAAAAAAAAAA
(1700626762.306347) can0 7E8#04410C1560000000
(1700626762.395381) can0 7E0#0322128C00000000
(1700626762.396782) can0 7E8#0762128C00000A48
(1700626762.486326) can0 7DF#02010CAAAAAAAAAA
(1700626762.496326) can0 7E8#04410C15C2000000
(1700626762.577210) can0 7E0#0322128C00000000
(1700626762.586386) can0 7E8#0762128C00000A6F
(1700626762.668129) can0 7DF#02010CAAAAAAAAAA
(1700626762.676331) can0 7E8#04410C161C000000
(1700626762.758949) can0 7E0#0322128C00000000
(1700626762.766385) can0 7E8#0762128C00000A99
(1700626762.849874) can0 7DF#02010CAAAAAAAAAA
(1700626762.856328) can0 7E8#04410C1692000000
(1700626762.940755) can0 7E0#0322128C00000000
(1700626762.946375) can0 7E8#0762128C00000B23
(1700626763.031680) can0 7DF#02010CAAAAAAAAAA
(1700626763.036326) can0 7E8#04410C16F6000000
(1700626763.122526) can0 7E0#0322128C00000000
(1700626763.126374) can0 7E8#0762128C00000B62
(1700626763.213450) can0 7DF#02010CAAAAAAAAAA
(1700626763.216325) can0 7E8#04410C16F6000000
(1700626763.304305) can0 7E0#0322128C00000000
(1700626763.306346) can0 7E8#0762128C00000B6D
(1700626763.395262) can0 7DF#02010CAAAAAAAAAA
(1700626763.396503) can0 7E8#04410C175A000000
(1700626763.486135) can0 7E0#0322128C00000000
(1700626763.496757) can0 7E8#0762128C00000B5E
(1700626763.577007) can0 7DF#02010CAAAAAAAAAA
(1700626763.586309) can0 7E8#04410C17C2000000
(1700626763.667837) can0 7E0#0322128C00000000
(1700626763.676331) can0 7E8#0762128C00000BB1
(1700626763.758750) can0 7DF#02010CAAAAAAAAAA
(1700626763.766476) can0 7E8#04410C186C000000
(1700626763.849605) can0 7E0#0322128C00000000
(1700626763.856477) can0 7E8#0762128C00000BA2
(1700626763.940524) can0 7DF#02010CAAAAAAAAAA
(1700626763.946301) can0 7E8#04410C18CC000000
(1700626764.031375) can0 7E0#0322128C00000000
(1700626764.036328) can0 7E8#0762128C00000B7E
(1700626764.122327) can0 7DF#02010CAAAAAAAAAA
(1700626764.126272) can0 7E8#04410C1970000000
(1700626764.213182) can0 7E0#0322128C00000000
(1700626764.216326) can0 7E8#0762128C00000BDD
(1700626764.304139) can0 7DF#02010CAAAAAAAAAA
(1700626764.306267) can0 7E8#04410C19F4000000
(1700626764.394936) can0 7E0#0322128C00000000
(1700626764.396317) can0 7E8#0762128C00000BB6
(1700626764.485889) can0 7DF#02010CAAAAAAAAAA
(1700626764.496251) can0 7E8#04410C1A9A000000
(1700626764.576730) can0 7E0#0322128C00000000
(1700626764.586311) can0 7E8#0762128C00000C48
(1700626764.667663) can0 7DF#02010CAAAAAAAAAA
(1700626764.676254) can0 7E8#04410C1B6E000000
(1700626764.758509) can0 7E0#0322128C00000000
(1700626764.766503) can0 7E8#0762128C00000CC9
(1700626764.849476) can0 7DF#02010CAAAAAAAAAA
(1700626764.856255) can0 7E8#04410C1BBE000000
(1700626764.940328) can0 7E0#0322128C00000000
(1700626764.946301) can0 7E8#0762128C00000D1B
(1700626765.031261) can0 7DF#02010CAAAAAAAAAA
(1700626765.036226) can0 7E8#04410C1C7E000000
(1700626765.122124) can0 7E0#0322128C00000000
(1700626765.126281) can0 7E8#0762128C00000D80
(1700626765.213001) can0 7DF#02010CAAAAAAAAAA
(1700626765.216248) can0 7E8#04410C1C7E000000
(1700626765.303852) can0 7E0#0322128C00000000
(1700626765.306449) can0 7E8#0762128C00000E90
(1700626765.394802) can0 7DF#02010CAAAAAAAAAA
(1700626765.396189) can0 7E8#04410C1D48000000
(1700626765.485632) can0 7E0#0322128C00000000
(1700626765.496424) can0 7E8#0762128C00000EFF
(1700626765.576562) can0 7DF#02010CAAAAAAAAAA
(1700626765.586192) can0 7E8#04410C1DCC000000
(1700626765.667401) can0 7E0#0322128C00000000
(1700626765.676249) can0 7E8#0762128C00000F08
(1700626765.758341) can0 7DF#02010CAAAAAAAAAA
(1700626765.766185) can0 7E8#04410C1E82000000
(1700626765.849189) can0 7E0#0322128C00000000
(1700626765.856233) can0 7E8#0762128C00000ED9
(1700626765.940124) can0 7DF#02010CAAAAAAAAAA
(1700626765.946173) can0 7E8#04410C1F50000000
(1700626766.030974) can0 7E0#0322128C00000000
(1700626766.036233) can0 7E8#0762128C00000EE2
(1700626766.121887) can0 7DF#02010CAAAAAAAAAA
(1700626766.126164) can0 7E8#04410C1FDC000000
(1700626766.212724) can0 7E0#0322128C00000000
(1700626766.216222) can0 7E8#0762128C0000108E
(1700626766.306126) can0 7E8#04410C20BE000000
(1700626766.394500) can0 7E0#0322128C00000000
(1700626766.396348) can0 7E8#0762128C00001062
(1700626766.485430) can0 7DF#02010CAAAAAAAAAA
(1700626766.496635) can0 7E8#04410C2184000000
(1700626766.576301) can0 7E0#0322128C00000000
(1700626766.586198) can0 7E8#0762128C0000103A
(1700626766.667236) can0 7DF#02010CAAAAAAAAAA
(1700626766.676128) can0 7E8#04410C220A000000
(1700626766.758039) can0 7E0#0322128C00000000
(1700626766.766186) can0 7E8#0762128C0000104E
(1700626766.848942) can0 7DF#02010CAAAAAAAAAA
(1700626766.856126) can0 7E8#04410C22DA000000
(1700626766.939799) can0 7E0#0322128C00000000
(1700626766.946173) can0 7E8#0762128C00001062
(1700626767.030751) can0 7DF#02010CAAAAAAAAAA
(1700626767.036670) can0 7E8#04410C23AA000000
(1700626767.121605) can0 7E0#0322128C00000000
(1700626767.126126) can0 7E8#0762128C00001147
(1700626767.212524) can0 7DF#02010CAAAAAAAAAA
(1700626767.216047) can0 7E8#04410C23AA000000
(1700626767.303360) can0 7E0#0322128C00000000
(1700626767.306308) can0 7E8#0762128C0000128F
(1700626767.394334) can0 7DF#02010CAAAAAAAAAA
(1700626767.396222) can0 7E8#04410C2454000000
(1700626767.485181) can0 7E0#0322128C00000000
(1700626767.496125) can0 7E8#0762128C000012E5
(1700626767.576124) can0 7DF#02010CAAAAAAAAAA
(1700626767.586032) can0 7E8#04410C252E000000
(1700626767.666937) can0 7E0#0322128C00000000
(1700626767.676125) can0 7E8#0762128C0000130B
(1700626767.757874) can0 7DF#02010CAAAAAAAAAA
(1700626767.766045) can0 7E8#04410C25B0000000
(1700626767.848726) can0 7E0#0322128C00000000
(1700626767.856126) can0 7E8#0762128C0000139A
(1700626767.939654) can0 7DF#02010CAAAAAAAAAA
(1700626767.946023) can0 7E8#04410C26F2000000
(1700626768.030507) can0 7E0#0322128C00000000
(1700626768.036124) can0 7E8#0762128C000013A3
(1700626768.121412) can0 7DF#02010CAAAAAAAAAA
(1700626768.126258) can0 7E8#04410C2768000000
(1700626768.212299) can0 7E0#0322128C00000000
(1700626768.216192) can0 7E8#0762128C000013A3
(1700626768.303234) can0 7DF#02010CAAAAAAAAAA
(1700626768.306003) can0 7E8#04410C2832000000
(1700626768.394047) can0 7E0#0322128C00000000
(1700626768.396121) can0 7E8#0762128C00001422
(1700626768.484976) can0 7DF#02010CAAAAAAAAAA
(1700626768.486027) can0 7E8#04410C291C000000
(1700626768.575800) can0 7E0#0322128C00000000
(1700626768.586441) can0 7E8#0762128C000013C6
(1700626768.666748) can0 7DF#02010CAAAAAAAAAA
(1700626768.675980) can0 7E8#04410C29B6000000
(1700626768.757605) can0 7E0#0322128C00000000
(1700626768.766041) can0 7E8#0762128C00001464
(1700626768.848506) can0 7DF#02010CAAAAAAAAAA
(1700626768.856126) can0 7E8#04410C2AB2000000
(1700626768.939350) can0 7E0#0322128C00000000
(1700626768.946048) can0 7E8#0762128C00001285
(1700626769.030326) can0 7DF#02010CAAAAAAAAAA
(1700626769.036126) can0 7E8#04410C2A6A000000
(1700626769.121162) can0 7E0#0322128C00000000
(1700626769.126041) can0 7E8#0762128C0000066B
(1700626769.212123) can0 7DF#02010CAAAAAAAAAA
(1700626769.215950) can0 7E8#04410C2A6A000000
(1700626769.302886) can0 7E0#0322128C00000000
(1700626769.306042) can0 7E8#0762128C000003ED
(1700626769.393851) can0 7DF#02010CAAAAAAAAAA
(1700626769.395929) can0 7E8#04410C2978000000
(1700626769.484681) can0 7E0#0322128C00000000
(1700626769.485998) can0 7E8#0762128C00000324
(1700626769.575623) can0 7DF#02010CAAAAAAAAAA
(1700626769.585911) can0 7E8#04410C2866000000
(1700626769.666481) can0 7E0#0322128C00000000
(1700626769.676129) can0 7E8#0762128C00000778
(1700626769.757401) can0 7DF#02010CAAAAAAAAAA
(1700626769.765913) can0 7E8#04410C2824000000
(1700626769.848275) can0 7E0#0322128C00000000
(1700626769.856194) can0 7E8#0762128C00000CF6
(1700626769.939199) can0 7DF#02010CAAAAAAAAAA
(1700626769.945895) can0 7E8#04410C2614000000
(1700626770.030011) can0 7E0#0322128C00000000
(1700626770.036125) can0 7E8#0762128C0000103F
(1700626770.120932) can0 7DF#02010CAAAAAAAAAA
(1700626770.125904) can0 7E8#04410C2076000000
(1700626770.211776) can0 7E0#0322128C00000000
(1700626770.215977) can0 7E8#0762128C000012E8
(1700626770.302709) can0 7DF#02010CAAAAAAAAAA
(1700626770.305909) can0 7E8#04410C20BA000000
(1700626770.393556) can0 7E0#0322128C00000000
(1700626770.395935) can0 7E8#0762128C0000126C
(1700626770.484503) can0 7DF#02010CAAAAAAAAAA
(1700626770.485870) can0 7E8#04410C212A000000
(1700626770.575325) can0 7E0#0322128C00000000
(1700626770.585930) can0 7E8#0762128C000012BE
(1700626770.666307) can0 7DF#02010CAAAAAAAAAA
(1700626770.675876) can0 7E8#04410C217E000000
(1700626770.757130) can0 7E0#0322128C00000000
(1700626770.765923) can0 7E8#0762128C0000133B
(1700626770.848051) can0 7DF#02010CAAAAAAAAAA
(1700626770.855854) can0 7E8#04410C21DC000000
(1700626770.938877) can0 7E0#0322128C00000000
(1700626770.945905) can0 7E8#0762128C0000138C
(1700626771.029820) can0 7DF#02010CAAAAAAAAAA
(1700626771.035851) can0 7E8#04410C2232000000
(1700626771.120662) can0 7E0#0322128C00000000
(1700626771.126301) can0 7E8#0762128C0000138B
(1700626771.211572) can0 7DF#02010CAAAAAAAAAA
(1700626771.215822) can0 7E8#04410C2232000000
(1700626771.302436) can0 7E0#0322128C00000000
(1700626771.305894) can0 7E8#0762128C000013C6
(1700626771.393377) can0 7DF#02010CAAAAAAAAAA
(1700626771.395808) can0 7E8#04410C2260000000
(1700626771.484253) can0 7E0#0322128C00000000
(1700626771.486250) can0 7E8#0762128C000013BA
(1700626771.575171) can0 7DF#02010CAAAAAAAAAA
(1700626771.585809) can0 7E8#04410C22DE000000
(1700626771.665976) can0 7E0#0322128C00000000
(1700626771.676164) can0 7E8#0762128C000013B7
(1700626771.756919) can0 7DF#02010CAAAAAAAAAA
(1700626771.765810) can0 7E8#04410C236A000000
(1700626771.856025) can0 7E8#0762128C000013C9
(1700626771.938701) can0 7DF#02010CAAAAAAAAAA
(1700626771.945802) can0 7E8#04410C23C6000000
(1700626772.029540) can0 7E0#0322128C00000000
(1700626772.035853) can0 7E8#0762128C000013F4
(1700626772.120456) can0 7DF#02010CAAAAAAAAAA
(1700626772.125939) can0 7E8#04410C2412000000
(1700626772.211323) can0 7E0#0322128C00000000
(1700626772.215877) can0 7E8#0762128C000013F7
(1700626772.302241) can0 7DF#02010CAAAAAAAAAA
(1700626772.305976) can0 7E8#04410C2480000000
(1700626772.393125) can0 7E0#0322128C00000000
(1700626772.396348) can0 7E8#0762128C00001496
(1700626772.484016) can0 7DF#02010CAAAAAAAAAA
(1700626772.485750) can0 7E8#04410C252E000000
(1700626772.574880) can0 7E0#0322128C00000000
(1700626772.585818) can0 7E8#0762128C00001498
(1700626772.665799) can0 7DF#02010CAAAAAAAAAA
(1700626772.675753) can0 7E8#04410C2596000000
(1700626772.756633) can0 7E0#0322128C00000000
(1700626772.765784) can0 7E8#0762128C000014DC
(1700626772.847569) can0 7DF#02010CAAAAAAAAAA
(1700626772.855902) can0 7E8#04410C2608000000
(1700626772.938427) can0 7E0#0322128C00000000
(1700626772.945793) can0 7E8#0762128C000014FA
(1700626773.029372) can0 7DF#02010CAAAAAAAAAA
(1700626773.035727) can0 7E8#04410C2680000000
(1700626773.120248) can0 7E0#0322128C00000000
(1700626773.125781) can0 7E8#0762128C00001557
(1700626773.211158) can0 7DF#02010CAAAAAAAAAA
(1700626773.215727) can0 7E8#04410C2680000000
(1700626773.301964) can0 7E0#0322128C00000000
(1700626773.305973) can0 7E8#0762128C00001550
(1700626773.392917) can0 7DF#02010CAAAAAAAAAA
(1700626773.395696) can0 7E8#04410C26E0000000
(1700626773.483767) can0 7E0#0322128C00000000
(1700626773.485873) can0 7E8#0762128C00001569
(1700626773.574687) can0 7DF#02010CAAAAAAAAAA
(1700626773.585702) can0 7E8#04410C277C000000
(1700626773.665528) can0 7E0#0322128C00000000
(1700626773.675752) can0 7E8#0762128C00001574
(1700626773.756452) can0 7DF#02010CAAAAAAAAAA
(1700626773.766389) can0 7E8#04410C2816000000
(1700626773.847335) can0 7E0#0322128C00000000
(1700626773.855752) can0 7E8#0762128C000015E7
(1700626773.938277) can0 7DF#02010CAAAAAAAAAA
(1700626773.945695) can0 7E8#04410C2884000000
(1700626774.029124) can0 7E0#0322128C00000000
(1700626774.035750) can0 7E8#0762128C000016A9
(1700626774.120041) can0 7DF#02010CAAAAAAAAAA
(1700626774.125753) can0 7E8#04410C291A000000
(1700626774.210896) can0 7E0#0322128C00000000
(1700626774.216126) can0 7E8#0762128C00001648
(1700626774.301823) can0 7DF#02010CAAAAAAAAAA
(1700626774.305876) can0 7E8#04410C2986000000
(1700626774.392658) can0 7E0#0322128C00000000
(1700626774.395725) can0 7E8#0762128C00001615
(1700626774.483580) can0 7DF#02010CAAAAAAAAAA
(1700626774.485645) can0 7E8#04410C2A08000000
(1700626774.574433) can0 7E0#0322128C00000000
(1700626774.585727) can0 7E8#0762128C00001673
(1700626774.665377) can0 7DF#02010CAAAAAAAAAA
(1700626774.675636) can0 7E8#04410C2A8C000000
(1700626774.756257) can0 7E0#0322128C00000000
(1700626774.765851) can0 7E8#0762128C00001683
(1700626774.847205) can0 7DF#02010CAAAAAAAAAA
(1700626774.855726) can0 7E8#04410C2B5C000000
(1700626774.938015) can0 7E0#0322128C00000000
(1700626774.945675) can0 7E8#0762128C000017B3
(1700626775.028978) can0 7DF#02010CAAAAAAAAAA
(1700626775.035633) can0 7E8#04410C2BF6000000
(1700626775.119815) can0 7E0#0322128C00000000
(1700626775.125674) can0 7E8#0762128C0000183E
(1700626775.210757) can0 7DF#02010CAAAAAAAAAA
(1700626775.215600) can0 7E8#04410C2BF6000000
(1700626775.301584) can0 7E0#0322128C00000000
(1700626775.305655) can0 7E8#0762128C00001984
(1700626775.392519) can0 7DF#02010CAAAAAAAAAA
(1700626775.395599) can0 7E8#04410C2C72000000
(1700626775.964890) can0 7E0#0322128C00000000
(1700626775.975645) can0 7E8#0762128C00000000
(1700626776.055791) can0 7DF#02010CAAAAAAAAAA
(1700626776.065553) can0 7E8#04410C28C8000000
(1700626776.146625) can0 7E0#0322128C00000000
(1700626776.155644) can0 7E8#0762128C00000000
(1700626776.237524) can0 7DF#02010CAAAAAAAAAA
(1700626776.245811) can0 7E8#04410C24C0000000
(1700626776.328360) can0 7E0#0322128C00000000
(1700626776.335625) can0 7E8#0762128C00000000
(1700626776.419281) can0 7DF#02010CAAAAAAAAAA
(1700626776.425535) can0 7E8#04410C20E6000000
(1700626776.510125) can0 7E0#0322128C00000000
(1700626776.515624) can0 7E8#0762128C00000000
(1700626776.601001) can0 7DF#02010CAAAAAAAAAA
(1700626776.605976) can0 7E8#04410C20E6000000
(1700626776.691852) can0 7E0#0322128C00000000
(1700626776.695601) can0 7E8#0762128C00000000
(1700626776.782751) can0 7DF#02010CAAAAAAAAAA
(1700626776.785512) can0 7E8#04410C1EBC000000
(1700626776.873584) can0 7E0#0322128C00000000
(1700626776.875576) can0 7E8#0762128C00000000
(1700626776.964479) can0 7DF#02010CAAAAAAAAAA
(1700626776.965529) can0 7E8#04410C24AC000000
(1700626777.055335) can0 7E0#0322128C00000000
(1700626777.065561) can0 7E8#0762128C00000000
(1700626777.146204) can0 7DF#02010CAAAAAAAAAA
(1700626777.155500) can0 7E8#04410C23E2000000
(1700626777.237021) can0 7E0#0322128C00000000
(1700626777.245836) can0 7E8#0762128C00000000
(1700626777.327874) can0 7DF#02010CAAAAAAAAAA
(1700626777.335579) can0 7E8#04410C23E2000000
(1700626777.418728) can0 7E0#0322128C00000000
(1700626777.425542) can0 7E8#0762128C00000000
(1700626777.509635) can0 7DF#02010CAAAAAAAAAA
(1700626777.515471) can0 7E8#04410C23C6000000
(1700626777.600481) can0 7E0#0322128C00000000
(1700626777.605541) can0 7E8#0762128C00000000
(1700626777.691356) can0 7DF#02010CAAAAAAAAAA
(1700626777.695476) can0 7E8#04410C23A4000000
(1700626777.782205) can0 7E0#0322128C00000000
(1700626777.785519) can0 7E8#0762128C00000000
(1700626777.873051) can0 7DF#02010CAAAAAAAAAA
(1700626777.875669) can0 7E8#04410C239E000000
(1700626777.963908) can0 7E0#0322128C00000000
(1700626777.965684) can0 7E8#0762128C00000000
(1700626778.054793) can0 7DF#02010CAAAAAAAAAA
(1700626778.065449) can0 7E8#04410C2384000000
(1700626778.145644) can0 7E0#0322128C00000000
(1700626778.155512) can0 7E8#0762128C00000000
(1700626778.236541) can0 7DF#02010CAAAAAAAAAA
(1700626778.245477) can0 7E8#04410C237C000000
(1700626778.327384) can0 7E0#0322128C00000000
(1700626778.335504) can0 7E8#0762128C00000000
(1700626778.418290) can0 7DF#02010CAAAAAAAAAA
(1700626778.425416) can0 7E8#04410C235C000000
(1700626778.509130) can0 7E0#0322128C00000000
(1700626778.515498) can0 7E8#0762128C00000000
(1700626778.599986) can0 7DF#02010CAAAAAAAAAA
(1700626778.605410) can0 7E8#04410C235C000000
(1700626778.690825) can0 7E0#0322128C00000000
(1700626778.695877) can0 7E8#0762128C00000000
(1700626778.781725) can0 7DF#02010CAAAAAAAAAA
(1700626778.785394) can0 7E8#04410C2342000000
(1700626778.872569) can0 7E0#0322128C00000000
(1700626778.875472) can0 7E8#0762128C00000000
(1700626778.963447) can0 7DF#02010CAAAAAAAAAA
(1700626778.965382) can0 7E8#04410C2338000000
(1700626779.054317) can0 7E0#0322128C00000000
(1700626779.055807) can0 7E8#0762128C00000000
(1700626779.145233) can0 7DF#02010CAAAAAAAAAA
(1700626779.155401) can0 7E8#04410C2314000000
(1700626779.236032) can0 7E0#0322128C00000000
(1700626779.245444) can0 7E8#0762128C00000000
(1700626779.326930) can0 7DF#02010CAAAAAAAAAA
(1700626779.335562) can0 7E8#04410C2310000000
(1700626779.417768) can0 7E0#0322128C00000000
(1700626779.425437) can0 7E8#0762128C00000000
(1700626779.508660) can0 7DF#02010CAAAAAAAAAA
(1700626779.515409) can0 7E8#04410C22F0000000
(1700626779.599502) can0 7E0#0322128C00000000
(1700626779.605636) can0 7E8#0762128C00000000
(1700626779.690386) can0 7DF#02010CAAAAAAAAAA
(1700626779.695397) can0 7E8#04410C22E0000000
(1700626779.781252) can0 7E0#0322128C00000000
(1700626779.785685) can0 7E8#0762128C00000000
(1700626779.872131) can0 7DF#02010CAAAAAAAAAA
(1700626779.875400) can0 7E8#04410C22CC000000
(1700626779.962929) can0 7E0#0322128C00000000
(1700626779.965416) can0 7E8#0762128C00000000
(1700626780.053821) can0 7DF#02010CAAAAAAAAAA
(1700626780.055640) can0 7E8#04410C22AC000000
(1700626780.144676) can0 7E0#0322128C00000000
(1700626780.155410) can0 7E8#0762128C00000000
(1700626780.235558) can0 7DF#02010CAAAAAAAAAA
(1700626780.245329) can0 7E8#04410C2298000000
(1700626780.326408) can0 7E0#0322128C00000000
(1700626780.335602) can0 7E8#0762128C00000000
(1700626780.417316) can0 7DF#02010CAAAAAAAAAA
(1700626780.425330) can0 7E8#04410C2278000000
(1700626780.508170) can0 7E0#0322128C00000000
(1700626780.515428) can0 7E8#0762128C00000000
(1700626780.599018) can0 7DF#02010CAAAAAAAAAA
(1700626780.605321) can0 7E8#04410C2278000000
(1700626780.689875) can0 7E0#0322128C00000000
(1700626780.695414) can0 7E8#0762128C00000000
(1700626780.780752) can0 7DF#02010CAAAAAAAAAA
(1700626780.785312) can0 7E8#04410C2260000000
(1700626780.871600) can0 7E0#0322128C00000000
(1700626780.875351) can0 7E8#0762128C00000000
(1700626780.962507) can0 7DF#02010CAAAAAAAAAA
(1700626780.965311) can0 7E8#04410C2254000000
(1700626781.053329) can0 7E0#0322128C00000000
(1700626781.055347) can0 7E8#0762128C00000000
(1700626781.144275) can0 7DF#02010CAAAAAAAAAA
(1700626781.145625) can0 7E8#04410C2234000000
(1700626781.235129) can0 7E0#0322128C00000000
(1700626781.245332) can0 7E8#0762128C00000000
(1700626781.325935) can0 7DF#02010CAAAAAAAAAA
(1700626781.335320) can0 7E8#04410C221C000000
(1700626781.416801) can0 7E0#0322128C00000000
(1700626781.425327) can0 7E8#0762128C00000000
(1700626781.507702) can0 7DF#02010CAAAAAAAAAA
(1700626781.515277) can0 7E8#04410C220C000000
(1700626781.598531) can0 7E0#0322128C00000000
(1700626781.605329) can0 7E8#0762128C00000000
(1700626781.689418) can0 7DF#02010CAAAAAAAAAA
(1700626781.695329) can0 7E8#04410C213A000000
(1700626781.780289) can0 7E0#0322128C00000000
(1700626781.785578) can0 7E8#0762128C00000000
(1700626781.871182) can0 7DF#02010CAAAAAAAAAA
(1700626781.875330) can0 7E8#04410C1E1A000000
(1700626781.962001) can0 7E0#0322128C00000000
(1700626781.965328) can0 7E8#0762128C00000000
(1700626782.052881) can0 7DF#02010CAAAAAAAAAA
(1700626782.065255) can0 7E8#04410C1AF6000000
(1700626782.143726) can0 7E0#0322128C00000000
(1700626782.145311) can0 7E8#0762128C00000000
(1700626782.234603) can0 7DF#02010CAAAAAAAAAA
(1700626782.245233) can0 7E8#04410C17C6000000
(1700626782.325413) can0 7E0#0322128C00000000
(1700626782.335301) can0 7E8#0762128C00000000
(1700626782.416323) can0 7DF#02010CAAAAAAAAAA
(1700626782.425232) can0 7E8#04410C145C000000
(1700626782.507208) can0 7E0#0322128C00000000
(1700626782.515290) can0 7E8#0762128C00000000
(1700626782.598127) can0 7DF#02010CAAAAAAAAAA
(1700626782.605227) can0 7E8#04410C145C000000
(1700626782.688923) can0 7E0#0322128C00000000
(1700626782.695275) can0 7E8#0762128C00000000
(1700626782.779794) can0 7DF#02010CAAAAAAAAAA
(1700626782.785375) can0 7E8#04410C111A000000
(1700626782.870643) can0 7E0#0322128C00000000
(1700626782.875433) can0 7E8#0762128C00000000
(1700626782.961509) can0 7DF#02010CAAAAAAAAAA
(1700626782.965320) can0 7E8#04410C1004000000
(1700626783.052374) can0 7E0#0322128C00000000
(1700626783.055250) can0 7E8#0762128C00000000
(1700626783.143297) can0 7DF#02010CAAAAAAAAAA
(1700626783.145182) can0 7E8#04410C0F20000000
(1700626783.234124) can0 7E0#0322128C00000000
(1700626783.235255) can0 7E8#0762128C00000000
(1700626783.325008) can0 7DF#02010CAAAAAAAAAA
(1700626783.335172) can0 7E8#04410C0D94000000
(1700626783.415855) can0 7E0#0322128C00000000
(1700626783.425230) can0 7E8#0762128C00000000
(1700626783.506751) can0 7DF#02010CAAAAAAAAAA
(1700626783.515121) can0 7E8#04410C0C90000000
(1700626783.597605) can0 7E0#0322128C00000000
(1700626783.605231) can0 7E8#0762128C00000000
(1700626783.688485) can0 7DF#02010CAAAAAAAAAA
(1700626783.695126) can0 7E8#04410C09F8000000
(1700626783.779357) can0 7E0#0322128C00000000
(1700626783.785226) can0 7E8#0762128C00000000
(1700626783.870251) can0 7DF#02010CAAAAAAAAAA
(1700626783.875126) can0 7E8#04410C06B2000000
(1700626783.961124) can0 7E0#0322128C00000000
(1700626783.965202) can0 7E8#0762128C00000000
(1700626784.051985) can0 7DF#02010CAAAAAAAAAA
(1700626784.055127) can0 7E8#04410C04C2000000
(1700626784.142800) can0 7E0#0322128C00000000
(1700626784.145193) can0 7E8#0762128C00000000
(1700626784.233679) can0 7DF#02010CAAAAAAAAAA
(1700626784.235120) can0 7E8#04410C01E8000000
(1700626784.324507) can0 7E0#0322128C00000000
(1700626784.335185) can0 7E8#0762128C00000000
(1700626784.415395) can0 7DF#02010CAAAAAAAAAA
(1700626784.425107) can0 7E8#04410C01A4000000
(1700626784.506291) can0 7E0#0322128C00000000
(1700626784.515186) can0 7E8#0762128C00000000
(1700626784.597129) can0 7DF#02010CAAAAAAAAAA
(1700626784.605126) can0 7E8#04410C01A4000000
(1700626784.687975) can0 7E0#0322128C00000000
(1700626784.695173) can0 7E8#0762128C00000000
(1700626784.778874) can0 7DF#02010CAAAAAAAAAA
(1700626784.785125) can0 7E8#04410C0000000000
(1700626784.869725) can0 7E0#0322128C00000000
(1700626784.875124) can0 7E8#0762128C00000000
(1700626784.960631) can0 7DF#02010CAAAAAAAAAA
(1700626784.965051) can0 7E8#04410C0000000000
(1700626785.051472) can0 7E0#0322128C00000000
(1700626785.055129) can0 7E8#0762128C00000000
(1700626785.142325) can0 7DF#02010CAAAAAAAAAA
(1700626785.145039) can0 7E8#04410C00D2000000
(1700626785.233201) can0 7E0#0322128C00000000
(1700626785.235121) can0 7E8#0762128C00000000
(1700626785.324052) can0 7DF#02010CAAAAAAAAAA
(1700626785.325052) can0 7E8#04410C0000000000
(1700626785.414897) can0 7E0#0322128C00000000
(1700626785.425128) can0 7E8#0762128C00000000
(1700626785.505778) can0 7DF#02010CAAAAAAAAAA
(1700626785.515027) can0 7E8#04410C0000000000
(1700626785.596630) can0 7E0#0322128C00000000
(1700626785.605126) can0 7E8#0762128C00000000
(1700626785.687521) can0 7DF#02010CAAAAAAAAAA
(1700626785.695022) can0 7E8#04410C0176000000
(1700626785.778351) can0 7E0#0322128C00000000
(1700626785.785256) can0 7E8#0762128C00000000
(1700626785.869290) can0 7DF#02010CAAAAAAAAAA
(1700626785.875126) can0 7E8#04410C0C8A000000
(1700626785.960125) can0 7E0#0322128C00000000
(1700626785.965125) can0 7E8#0762128C00000000
(1700626786.050977) can0 7DF#02010CAAAAAAAAAA
(1700626786.055002) can0 7E8#04410C15C6000000
(1700626786.141818) can0 7E0#0322128C00000000
(1700626786.145051) can0 7E8#0762128C0000045A
(1700626786.232757) can0 7DF#02010CAAAAAAAAAA
(1700626786.234999) can0 7E8#04410C19AC000000
(1700626786.323584) can0 7E0#0322128C00000000
(1700626786.325373) can0 7E8#0762128C0000035F
(1700626786.414521) can0 7DF#02010CAAAAAAAAAA
(1700626786.425124) can0 7E8#04410C1966000000
(1700626786.505381) can0 7E0#0322128C00000000
(1700626786.515013) can0 7E8#0762128C000002C0
(1700626786.596329) can0 7DF#02010CAAAAAAAAAA
(1700626786.604941) can0 7E8#04410C1966000000
(1700626786.687128) can0 7E0#0322128C00000000
(1700626786.695003) can0 7E8#0762128C00000271
(1700626786.778036) can0 7DF#02010CAAAAAAAAAA
(1700626786.784953) can0 7E8#04410C17E0000000
(1700626786.868876) can0 7E0#0322128C00000000
(1700626786.875001) can0 7E8#0762128C0000026D
(1700626786.959833) can0 7DF#02010CAAAAAAAAAA
(1700626786.964933) can0 7E8#04410C15FA000000
(1700626787.050673) can0 7E0#0322128C00000000
(1700626787.055027) can0 7E8#0762128C00000265
(1700626787.141567) can0 7DF#02010CAAAAAAAAAA
(1700626787.144931) can0 7E8#04410C1462000000
(1700626787.232405) can0 7E0#0322128C00000000
(1700626787.234980) can0 7E8#0762128C0000024A
(1700626787.323326) can0 7DF#02010CAAAAAAAAAA
(1700626787.324924) can0 7E8#04410C138C000000
(1700626787.414207) can0 7E0#0322128C00000000
(1700626787.424978) can0 7E8#0762128C0000035E
(1700626787.505134) can0 7DF#02010CAAAAAAAAAA
(1700626787.514911) can0 7E8#04410C1338000000
(1700626787.595933) can0 7E0#0322128C00000000
(1700626787.604979) can0 7E8#0762128C00000AD2
(1700626787.686885) can0 7DF#02010CAAAAAAAAAA
(1700626787.695311) can0 7E8#04410C1740000000
(1700626787.777730) can0 7E0#0322128C00000000
(1700626787.784943) can0 7E8#0762128C00000B28
(1700626787.868658) can0 7DF#02010CAAAAAAAAAA
(1700626787.874876) can0 7E8#04410C24E8000000
(1700626787.959503) can0 7E0#0322128C00000000
(1700626787.965320) can0 7E8#0762128C00000876
(1700626788.050414) can0 7DF#02010CAAAAAAAAAA
(1700626788.054885) can0 7E8#04410C32F4000000
(1700626788.141296) can0 7E0#0322128C00000000
(1700626788.144940) can0 7E8#0762128C000003F5
(1700626788.232225) can0 7DF#02010CAAAAAAAAAA
(1700626788.235248) can0 7E8#04410C3772000000
(1700626788.323039) can0 7E0#0322128C00000000
(1700626788.324933) can0 7E8#0762128C00000000
(1700626788.413925) can0 7DF#02010CAAAAAAAAAA
(1700626788.424850) can0 7E8#04410C3306000000
(1700626788.504760) can0 7E0#0322128C00000000
(1700626788.514918) can0 7E8#0762128C00000000
(1700626788.595673) can0 7DF#02010CAAAAAAAAAA
(1700626788.604829) can0 7E8#04410C3306000000
(1700626788.686526) can0 7E0#0322128C00000000
(1700626788.695041) can0 7E8#0762128C00000000
(1700626788.777413) can0 7DF#02010CAAAAAAAAAA
(1700626788.784820) can0 7E8#04410C2D96000000
(1700626788.868294) can0 7E0#0322128C00000000
(1700626788.875274) can0 7E8#0762128C00000000
(1700626788.959172) can0 7DF#02010CAAAAAAAAAA
(1700626788.964801) can0 7E8#04410C27B6000000
(1700626789.049979) can0 7E0#0322128C00000000
(1700626789.054884) can0 7E8#0762128C00000000
(1700626789.140873) can0 7DF#02010CAAAAAAAAAA
(1700626789.144790) can0 7E8#04410C219C000000
(1700626789.231748) can0 7E0#0322128C00000000
(1700626789.234875) can0 7E8#0762128C00000276
(1700626789.322626) can0 7DF#02010CAAAAAAAAAA
(1700626789.324811) can0 7E8#04410C1EA2000000
(1700626789.413483) can0 7E0#0322128C00000000
(1700626789.414870) can0 7E8#0762128C00000272
(1700626789.504425) can0 7DF#02010CAAAAAAAAAA
(1700626789.514784) can0 7E8#04410C1D44000000
(1700626789.595306) can0 7E0#0322128C00000000
(1700626789.604851) can0 7E8#0762128C0000025B
(1700626789.686230) can0 7DF#02010CAAAAAAAAAA
(1700626789.694934) can0 7E8#04410C1B82000000
(1700626789.777020) can0 7E0#0322128C00000000
(1700626789.785251) can0 7E8#0762128C00000441
(1700626789.867974) can0 7DF#02010CAAAAAAAAAA
(1700626789.874769) can0 7E8#04410C1AE8000000
(1700626789.958820) can0 7E0#0322128C00000000
(1700626789.964818) can0 7E8#0762128C00000A10
(1700626790.049731) can0 7DF#02010CAAAAAAAAAA
(1700626790.054763) can0 7E8#04410C1D6A000000
(1700626790.140569) can0 7E0#0322128C00000000
(1700626790.145010) can0 7E8#0762128C00000B59
(1700626790.231509) can0 7DF#02010CAAAAAAAAAA
(1700626790.234977) can0 7E8#04410C19E8000000
(1700626790.322357) can0 7E0#0322128C00000000
(1700626790.325003) can0 7E8#0762128C00000CA4
(1700626790.413338) can0 7DF#02010CAAAAAAAAAA
(1700626790.414874) can0 7E8#04410C19E8000000
(1700626790.504130) can0 7E0#0322128C00000000
(1700626790.514781) can0 7E8#0762128C00000F11
(1700626790.595131) can0 7DF#02010CAAAAAAAAAA
(1700626790.604732) can0 7E8#04410C199C000000
(1700626790.685918) can0 7E0#0322128C00000000
(1700626790.695351) can0 7E8#0762128C0000106F
(1700626790.776850) can0 7DF#02010CAAAAAAAAAA
(1700626790.784702) can0 7E8#04410C19B6000000
(1700626790.867673) can0 7E0#0322128C00000000
(1700626790.874760) can0 7E8#0762128C00001172
(1700626790.958622) can0 7DF#02010CAAAAAAAAAA
(1700626790.964703) can0 7E8#04410C19D2000000
(1700626791.049475) can0 7E0#0322128C00000000
(1700626791.054767) can0 7E8#0762128C000011CA
(1700626791.140372) can0 7DF#02010CAAAAAAAAAA
(1700626791.144700) can0 7E8#04410C1A04000000
(1700626791.231270) can0 7E0#0322128C00000000
(1700626791.234752) can0 7E8#0762128C00001270
(1700626791.322179) can0 7DF#02010CAAAAAAAAAA
(1700626791.324680) can0 7E8#04410C1A1E000000
(1700626791.413017) can0 7E0#0322128C00000000
(1700626791.424751) can0 7E8#0762128C00001302
(1700626791.503931) can0 7DF#02010CAAAAAAAAAA
(1700626791.514662) can0 7E8#04410C1A88000000
(1700626791.594767) can0 7E0#0322128C00000000
(1700626791.604755) can0 7E8#0762128C000013C6
(1700626791.685686) can0 7DF#02010CAAAAAAAAAA
(1700626791.694663) can0 7E8#04410C1A7C000000
(1700626791.776537) can0 7E0#0322128C00000000
(1700626791.784726) can0 7E8#0762128C00001444
(1700626791.867475) can0 7DF#02010CAAAAAAAAAA
(1700626791.875023) can0 7E8#04410C1AB2000000
(1700626791.958329) can0 7E0#0322128C00000000
(1700626791.964726) can0 7E8#0762128C00001440
(1700626792.049280) can0 7DF#02010CAAAAAAAAAA
(1700626792.054654) can0 7E8#04410C1AF8000000
(1700626792.140124) can0 7E0#0322128C00000000
(1700626792.144875) can0 7E8#0762128C00001494
(1700626792.231009) can0 7DF#02010CAAAAAAAAAA
(1700626792.234768) can0 7E8#04410C1B42000000
(1700626792.321851) can0 7E0#0322128C00000000
(1700626792.324689) can0 7E8#0762128C0000141D
(1700626792.412770) can0 7DF#02010CAAAAAAAAAA
(1700626792.424621) can0 7E8#04410C1B6A000000
(1700626792.503627) can0 7E0#0322128C00000000
(1700626792.504691) can0 7E8#0762128C0000143A
(1700626792.594553) can0 7DF#02010CAAAAAAAAAA
(1700626792.604602) can0 7E8#04410C1B6A000000
(1700626792.685415) can0 7E0#0322128C00000000
(1700626792.694874) can0 7E8#0762128C000014E8
(1700626792.776332) can0 7DF#02010CAAAAAAAAAA
(1700626792.784601) can0 7E8#04410C1B86000000
(1700626792.867197) can0 7E0#0322128C00000000
(1700626792.874652) can0 7E8#0762128C000014B6
(1700626792.958129) can0 7DF#02010CAAAAAAAAAA
(1700626792.964779) can0 7E8#04410C1BC2000000
(1700626793.048957) can0 7E0#0322128C00000000
(1700626793.055125) can0 7E8#0762128C00001478
(1700626793.139885) can0 7DF#02010CAAAAAAAAAA
(1700626793.144602) can0 7E8#04410C1BE0000000
(1700626793.230751) can0 7E0#0322128C00000000
(1700626793.234627) can0 7E8#0762128C00001429
(1700626793.321683) can0 7DF#02010CAAAAAAAAAA
(1700626793.324596) can0 7E8#04410C1C0E000000
(1700626793.412522) can0 7E0#0322128C00000000
(1700626793.414698) can0 7E8#0762128C000013D1
(1700626793.503431) can0 7DF#02010CAAAAAAAAAA
(1700626793.504597) can0 7E8#04410C1C56000000
(1700626793.594324) can0 7E0#0322128C00000000
(1700626793.604630) can0 7E8#0762128C000013AE
(1700626793.685266) can0 7DF#02010CAAAAAAAAAA
(1700626793.694659) can0 7E8#04410C1C96000000
(1700626793.776129) can0 7E0#0322128C00000000
(1700626793.784626) can0 7E8#0762128C000013E4
(1700626793.867018) can0 7DF#02010CAAAAAAAAAA
(1700626793.874750) can0 7E8#04410C1CC8000000
(1700626793.957874) can0 7E0#0322128C00000000
(1700626793.964620) can0 7E8#0762128C00001429
(1700626794.048778) can0 7DF#02010CAAAAAAAAAA
(1700626794.055124) can0 7E8#04410C1CF8000000
(1700626794.139624) can0 7E0#0322128C00000000
(1700626794.144601) can0 7E8#0762128C0000141B
(1700626794.230557) can0 7DF#02010CAAAAAAAAAA
(1700626794.234519) can0 7E8#04410C1D10000000
(1700626794.321411) can0 7E0#0322128C00000000
(1700626794.324596) can0 7E8#0762128C000013B9
(1700626794.412327) can0 7DF#02010CAAAAAAAAAA
(1700626794.425270) can0 7E8#04410C1D3E000000
(1700626794.503197) can0 7E0#0322128C00000000
(1700626794.505320) can0 7E8#0762128C00001428
(1700626794.594124) can0 7DF#02010CAAAAAAAAAA
(1700626794.604503) can0 7E8#04410C1D3E000000
(1700626794.684949) can0 7E0#0322128C00000000
(1700626794.694755) can0 7E8#0762128C00001438
(1700626794.775874) can0 7DF#02010CAAAAAAAAAA
(1700626794.784488) can0 7E8#04410C1D72000000
(1700626794.866699) can0 7E0#0322128C00000000
(1700626794.874905) can0 7E8#0762128C00001477
(1700626794.957658) can0 7DF#02010CAAAAAAAAAA
(1700626794.964935) can0 7E8#04410C1D90000000
(1700626795.048503) can0 7E0#0322128C00000000
(1700626795.054533) can0 7E8#0762128C0000140C
(1700626795.139440) can0 7DF#02010CAAAAAAAAAA
(1700626795.144476) can0 7E8#04410C1DEA000000
(1700626795.230318) can0 7E0#0322128C00000000
(1700626795.234513) can0 7E8#0762128C0000144C
(1700626795.321228) can0 7DF#02010CAAAAAAAAAA
(1700626795.324624) can0 7E8#04410C1E04000000
(1700626795.412057) can0 7E0#0322128C00000000
(1700626795.414729) can0 7E8#0762128C000013C6
(1700626795.502986) can0 7DF#02010CAAAAAAAAAA
(1700626795.504443) can0 7E8#04410C1E3C000000
(1700626795.593827) can0 7E0#0322128C00000000
(1700626795.604506) can0 7E8#0762128C000013C7
(1700626795.684774) can0 7DF#02010CAAAAAAAAAA
(1700626795.695129) can0 7E8#04410C1E86000000
(1700626795.775627) can0 7E0#0322128C00000000
(1700626795.784508) can0 7E8#0762128C000013B0
(1700626795.866552) can0 7DF#02010CAAAAAAAAAA
(1700626795.874429) can0 7E8#04410C1EBA000000
(1700626795.957395) can0 7E0#0322128C00000000
(1700626795.964483) can0 7E8#0762128C000013B0
(1700626796.048352) can0 7DF#02010CAAAAAAAAAA
(1700626796.054832) can0 7E8#04410C1EEA000000
(1700626796.139226) can0 7E0#0322128C00000000
(1700626796.144481) can0 7E8#0762128C0000139C
(1700626796.230126) can0 7DF#02010CAAAAAAAAAA
(1700626796.234409) can0 7E8#04410C1F04000000
(1700626796.320943) can0 7E0#0322128C00000000
(1700626796.324472) can0 7E8#0762128C00001344
(1700626796.411880) can0 7DF#02010CAAAAAAAAAA
(1700626796.414565) can0 7E8#04410C1F04000000
(1700626796.502709) can0 7E0#0322128C00000000
(1700626796.504442) can0 7E8#0762128C000012F5
(1700626796.593650) can0 7DF#02010CAAAAAAAAAA
(1700626796.604389) can0 7E8#04410C1F18000000
(1700626796.684499) can0 7E0#0322128C00000000
(1700626796.694437) can0 7E8#0762128C000012A9
(1700626796.775415) can0 7DF#02010CAAAAAAAAAA
(1700626796.784381) can0 7E8#04410C1F60000000
(1700626796.866277) can0 7E0#0322128C00000000
(1700626796.874434) can0 7E8#0762128C0000126B
(1700626796.957227) can0 7DF#02010CAAAAAAAAAA
(1700626796.964382) can0 7E8#04410C1F88000000
(1700626797.048023) can0 7E0#0322128C00000000
(1700626797.054786) can0 7E8#0762128C00001237
(1700626797.138953) can0 7DF#02010CAAAAAAAAAA
(1700626797.144356) can0 7E8#04410C1FB8000000
(1700626797.229776) can0 7E0#0322128C00000000
(1700626797.234406) can0 7E8#0762128C00001256
(1700626797.320710) can0 7DF#02010CAAAAAAAAAA
(1700626797.324535) can0 7E8#04410C1FE2000000
(1700626797.411556) can0 7E0#0322128C00000000
(1700626797.414697) can0 7E8#0762128C000012A4
(1700626797.502503) can0 7DF#02010CAAAAAAAAAA
(1700626797.504327) can0 7E8#04410C2004000000
(1700626797.593330) can0 7E0#0322128C00000000
(1700626797.594397) can0 7E8#0762128C000012A5
(1700626797.684286) can0 7DF#02010CAAAAAAAAAA
(1700626797.694731) can0 7E8#04410C2032000000
(1700626797.775138) can0 7E0#0322128C00000000
(1700626797.784385) can0 7E8#0762128C0000128A
(1700626797.866016) can0 7DF#02010CAAAAAAAAAA
(1700626797.874333) can0 7E8#04410C2050000000
(1700626797.956852) can0 7E0#0322128C00000000
(1700626797.964381) can0 7E8#0762128C00001279
(1700626798.047780) can0 7DF#02010CAAAAAAAAAA
(1700626798.054508) can0 7E8#04410C20B8000000
(1700626798.138626) can0 7E0#0322128C00000000
(1700626798.144357) can0 7E8#0762128C0000121F
(1700626798.229572) can0 7DF#02010CAAAAAAAAAA
(1700626798.234325) can0 7E8#04410C20AE000000
(1700626798.320398) can0 7E0#0322128C00000000
(1700626798.324354) can0 7E8#0762128C000011FC
(1700626798.411376) can0 7DF#02010CAAAAAAAAAA
(1700626798.414332) can0 7E8#04410C20AE000000
(1700626798.502234) can0 7E0#0322128C00000000
(1700626798.504329) can0 7E8#0762128C000011BB
(1700626798.593175) can0 7DF#02010CAAAAAAAAAA
(1700626798.594319) can0 7E8#04410C20EE000000
(1700626798.683982) can0 7E0#0322128C00000000
(1700626798.694356) can0 7E8#0762128C00001182
(1700626798.774907) can0 7DF#02010CAAAAAAAAAA
(1700626798.784296) can0 7E8#04410C20F6000000
(1700626798.865758) can0 7E0#0322128C00000000
(1700626798.874332) can0 7E8#0762128C0000115E
(1700626798.956663) can0 7DF#02010CAAAAAAAAAA
(1700626798.964287) can0 7E8#04410C213C000000
(1700626799.047509) can0 7E0#0322128C00000000
(1700626799.054731) can0 7E8#0762128C0000110E
(1700626799.138431) can0 7DF#02010CAAAAAAAAAA
(1700626799.144267) can0 7E8#04410C215A000000
(1700626799.229302) can0 7E0#0322128C00000000
(1700626799.234334) can0 7E8#0762128C00001101
(1700626799.320265) can0 7DF#02010CAAAAAAAAAA
(1700626799.324256) can0 7E8#04410C216C000000
(1700626799.411132) can0 7E0#0322128C00000000
(1700626799.414324) can0 7E8#0762128C000010D7
(1700626799.502009) can0 7DF#02010CAAAAAAAAAA
(1700626799.504231) can0 7E8#04410C2192000000
(1700626799.592822) can0 7E0#0322128C00000000
(1700626799.594753) can0 7E8#0762128C000010B7
(1700626799.683769) can0 7DF#02010CAAAAAAAAAA
(1700626799.694398) can0 7E8#04410C21D6000000
(1700626799.774612) can0 7E0#0322128C00000000
(1700626799.784296) can0 7E8#0762128C000010B2
(1700626799.865534) can0 7DF#02010CAAAAAAAAAA
(1700626799.874229) can0 7E8#04410C21E8000000
(1700626799.956376) can0 7E0#0322128C00000000
(1700626799.964286) can0 7E8#0762128C00001098
(1700626800.047331) can0 7DF#02010CAAAAAAAAAA
(1700626800.054211) can0 7E8#04410C220A000000
(1700626800.138192) can0 7E0#0322128C00000000
(1700626800.144296) can0 7E8#0762128C00001081
(1700626800.229126) can0 7DF#02010CAAAAAAAAAA
(1700626800.234197) can0 7E8#04410C223A000000
(1700626800.319965) can0 7E0#0322128C00000000
(1700626800.324880) can0 7E8#0762128C00001077
(1700626800.410900) can0 7DF#02010CAAAAAAAAAA
(1700626800.414800) can0 7E8#04410C223A000000
(1700626800.501754) can0 7E0#0322128C00000000
(1700626800.504282) can0 7E8#0762128C0000106B
(1700626800.592683) can0 7DF#02010CAAAAAAAAAA
(1700626800.594251) can0 7E8#04410C224A000000
(1700626800.683544) can0 7E0#0322128C00000000
(1700626800.694267) can0 7E8#0762128C00001058
(1700626800.774452) can0 7DF#02010CAAAAAAAAAA
(1700626800.784179) can0 7E8#04410C2282000000
(1700626800.865330) can0 7E0#0322128C00000000
(1700626800.874237) can0 7E8#0762128C00001067
(1700626800.956252) can0 7DF#02010CAAAAAAAAAA
(1700626800.964168) can0 7E8#04410C2292000000
(1700626801.047126) can0 7E0#0322128C00000000
(1700626801.054257) can0 7E8#0762128C0000104E
(1700626801.138004) can0 7DF#02010CAAAAAAAAAA
(1700626801.144130) can0 7E8#04410C22B2000000
(1700626801.228818) can0 7E0#0322128C00000000
(1700626801.234231) can0 7E8#0762128C00001038
(1700626801.319738) can0 7DF#02010CAAAAAAAAAA
(1700626801.324128) can0 7E8#04410C22F4000000
(1700626801.410602) can0 7E0#0322128C00000000
(1700626801.414437) can0 7E8#0762128C00001041
(1700626801.501518) can0 7DF#02010CAAAAAAAAAA
(1700626801.504125) can0 7E8#04410C2304000000
(1700626801.592352) can0 7E0#0322128C00000000
(1700626801.594198) can0 7E8#0762128C000008B4
(1700626801.683333) can0 7DF#02010CAAAAAAAAAA
(1700626801.694545) can0 7E8#04410C22F0000000
(1700626801.774174) can0 7E0#0322128C00000000
(1700626801.784178) can0 7E8#0762128C000004AA
(1700626801.865127) can0 7DF#02010CAAAAAAAAAA
(1700626801.874130) can0 7E8#04410C22EC000000
(1700626801.955934) can0 7E0#0322128C00000000
(1700626801.964178) can0 7E8#0762128C000003CA
(1700626802.046876) can0 7DF#02010CAAAAAAAAAA
(1700626802.054447) can0 7E8#04410C22FE000000
(1700626802.137699) can0 7E0#0322128C00000000
(1700626802.144131) can0 7E8#0762128C000006E2
(1700626802.228641) can0 7DF#02010CAAAAAAAAAA
(1700626802.234130) can0 7E8#04410C230A000000
(1700626802.319459) can0 7E0#0322128C00000000
(1700626802.324128) can0 7E8#0762128C00000B6D
(1700626802.410407) can0 7DF#02010CAAAAAAAAAA
(1700626802.414131) can0 7E8#04410C230A000000
(1700626802.501290) can0 7E0#0322128C00000000
(1700626802.504832) can0 7E8#0762128C00000D4B
(1700626802.592232) can0 7DF#02010CAAAAAAAAAA
(1700626802.594023) can0 7E8#04410C2314000000
(1700626802.683042) can0 7E0#0322128C00000000
(1700626802.684125) can0 7E8#0762128C00000F6E
(1700626802.773979) can0 7DF#02010CAAAAAAAAAA
(1700626802.784015) can0 7E8#04410C231C000000
(1700626802.864817) can0 7E0#0322128C00000000
(1700626802.874127) can0 7E8#0762128C00000FC4
(1700626802.955759) can0 7DF#02010CAAAAAAAAAA
(1700626802.964016) can0 7E8#04410C2332000000
(1700626803.046602) can0 7E0#0322128C00000000
(1700626803.054130) can0 7E8#0762128C00000FCC
(1700626803.137521) can0 7DF#02010CAAAAAAAAAA
(1700626803.144004) can0 7E8#04410C2358000000
(1700626803.228372) can0 7E0#0322128C00000000
(1700626803.234134) can0 7E8#0762128C00000FB9
(1700626803.319325) can0 7DF#02010CAAAAAAAAAA
(1700626803.324006) can0 7E8#04410C2382000000
(1700626803.410126) can0 7E0#0322128C00000000
(1700626803.414331) can0 7E8#0762128C00000FB6
(1700626803.501050) can0 7DF#02010CAAAAAAAAAA
(1700626803.504330) can0 7E8#04410C2394000000
(1700626803.591886) can0 7E0#0322128C00000000
(1700626803.594044) can0 7E8#0762128C00000F93
(1700626803.682814) can0 7DF#02010CAAAAAAAAAA
(1700626803.684002) can0 7E8#04410C23AA000000
(1700626803.773655) can0 7E0#0322128C00000000
(1700626803.784040) can0 7E8#0762128C00000FA2
(1700626803.864580) can0 7DF#02010CAAAAAAAAAA
(1700626803.873983) can0 7E8#04410C23DA000000
(1700626803.955414) can0 7E0#0322128C00000000
(1700626803.964036) can0 7E8#0762128C00000F94
(1700626804.046352) can0 7DF#02010CAAAAAAAAAA
(1700626804.053957) can0 7E8#04410C23F0000000
(1700626804.137227) can0 7E0#0322128C00000000
(1700626804.144017) can0 7E8#0762128C00000FB3
(1700626804.228249) can0 7DF#02010CAAAAAAAAAA
(1700626804.233940) can0 7E8#04410C2422000000
(1700626804.318936) can0 7E0#0322128C00000000
(1700626804.324015) can0 7E8#0762128C00000FBD
(1700626804.409899) can0 7DF#02010CAAAAAAAAAA
(1700626804.413934) can0 7E8#04410C2422000000
(1700626804.500757) can0 7E0#0322128C00000000
(1700626804.504002) can0 7E8#0762128C00000FFC
(1700626804.591688) can0 7DF#02010CAAAAAAAAAA
(1700626804.594007) can0 7E8#04410C2434000000
(1700626804.682535) can0 7E0#0322128C00000000
(1700626804.684320) can0 7E8#0762128C00000FE4
(1700626804.773481) can0 7DF#02010CAAAAAAAAAA
(1700626804.783908) can0 7E8#04410C244C000000
(1700626804.864335) can0 7E0#0322128C00000000
(1700626804.873981) can0 7E8#0762128C00000FC4
(1700626804.955280) can0 7DF#02010CAAAAAAAAAA
(1700626804.963905) can0 7E8#04410C2480000000
(1700626805.046126) can0 7E0#0322128C00000000
(1700626805.054130) can0 7E8#0762128C00000F25
(1700626805.137049) can0 7DF#02010CAAAAAAAAAA
(1700626805.143879) can0 7E8#04410C247E000000
(1700626805.227900) can0 7E0#0322128C00000000
(1700626805.234042) can0 7E8#0762128C00000E4A
(1700626805.318810) can0 7DF#02010CAAAAAAAAAA
(1700626805.324604) can0 7E8#04410C24B4000000
(1700626805.409663) can0 7E0#0322128C00000000
(1700626805.413980) can0 7E8#0762128C00000F0A
(1700626805.500612) can0 7DF#02010CAAAAAAAAAA
(1700626805.503876) can0 7E8#04410C24F2000000
(1700626805.591456) can0 7E0#0322128C00000000
(1700626805.594169) can0 7E8#0762128C00000EF4
(1700626805.682387) can0 7DF#02010CAAAAAAAAAA
(1700626805.683879) can0 7E8#04410C24EE000000
(1700626805.773269) can0 7E0#0322128C00000000
(1700626805.783928) can0 7E8#0762128C00000EFF
(1700626805.864190) can0 7DF#02010CAAAAAAAAAA
(1700626805.873857) can0 7E8#04410C24FC000000
(1700626805.955004) can0 7E0#0322128C00000000
(1700626805.963917) can0 7E8#0762128C00000F01
(1700626806.045956) can0 7DF#02010CAAAAAAAAAA
(1700626806.054027) can0 7E8#04410C2532000000
(1700626806.136782) can0 7E0#0322128C00000000
(1700626806.143900) can0 7E8#0762128C00000EF9
(1700626806.227702) can0 7DF#02010CAAAAAAAAAA
(1700626806.233981) can0 7E8#04410C2532000000
(1700626806.318562) can0 7E0#0322128C00000000
(1700626806.324391) can0 7E8#0762128C00000ECC
(1700626806.409504) can0 7DF#02010CAAAAAAAAAA
(1700626806.413815) can0 7E8#04410C2532000000
(1700626806.500352) can0 7E0#0322128C00000000
(1700626806.503887) can0 7E8#0762128C00000807
(1700626806.591298) can0 7DF#02010CAAAAAAAAAA
(1700626806.594008) can0 7E8#04410C2546000000
(1700626806.682126) can0 7E0#0322128C00000000
(1700626806.683876) can0 7E8#0762128C0000042B
(1700626806.773022) can0 7DF#02010CAAAAAAAAAA
(1700626806.783787) can0 7E8#04410C253A000000
(1700626806.863853) can0 7E0#0322128C00000000
(1700626806.873856) can0 7E8#0762128C0000035E
(1700626806.954777) can0 7DF#02010CAAAAAAAAAA
(1700626806.963795) can0 7E8#04410C2520000000
(1700626807.045631) can0 7E0#0322128C00000000
(1700626807.054058) can0 7E8#0762128C00000441
(1700626807.136542) can0 7DF#02010CAAAAAAAAAA
(1700626807.143775) can0 7E8#04410C2514000000
(1700626807.227390) can0 7E0#0322128C00000000
(1700626807.233830) can0 7E8#0762128C000008F3
(1700626807.318344) can0 7DF#02010CAAAAAAAAAA
(1700626807.323766) can0 7E8#04410C2548000000
(1700626807.409174) can0 7E0#0322128C00000000
(1700626807.414056) can0 7E8#0762128C00000C6C
(1700626807.500125) can0 7DF#02010CAAAAAAAAAA
(1700626807.503755) can0 7E8#04410C2538000000
(1700626807.590928) can0 7E0#0322128C00000000
(1700626807.593815) can0 7E8#0762128C00000F57
(1700626807.681876) can0 7DF#02010CAAAAAAAAAA
(1700626807.683941) can0 7E8#04410C2552000000
(1700626807.772702) can0 7E0#0322128C00000000
(1700626807.783836) can0 7E8#0762128C00001086
(1700626807.863626) can0 7DF#02010CAAAAAAAAAA
(1700626807.873856) can0 7E8#04410C2558000000
(1700626807.954476) can0 7E0#0322128C00000000
(1700626807.963802) can0 7E8#0762128C00000FD2
(1700626808.045410) can0 7DF#02010CAAAAAAAAAA
(1700626808.053736) can0 7E8#04410C257E000000
(1700626808.136292) can0 7E0#0322128C00000000
(1700626808.143787) can0 7E8#0762128C00000FBA
(1700626808.227228) can0 7DF#02010CAAAAAAAAAA
(1700626808.233875) can0 7E8#04410C259A000000
(1700626808.318024) can0 7E0#0322128C00000000
(1700626808.323774) can0 7E8#0762128C00000F6E
(1700626808.408982) can0 7DF#02010CAAAAAAAAAA
(1700626808.414128) can0 7E8#04410C259A000000
(1700626808.499818) can0 7E0#0322128C00000000
(1700626808.503767) can0 7E8#0762128C00000DBA
(1700626808.590751) can0 7DF#02010CAAAAAAAAAA
(1700626808.593685) can0 7E8#04410C25BA000000
(1700626808.681569) can0 7E0#0322128C00000000
(1700626808.683753) can0 7E8#0762128C00000CDF
(1700626808.772501) can0 7DF#02010CAAAAAAAAAA
(1700626808.783669) can0 7E8#04410C25D2000000
(1700626808.863351) can0 7E0#0322128C00000000
(1700626808.873757) can0 7E8#0762128C00000D1A
(1700626808.954301) can0 7DF#02010CAAAAAAAAAA
(1700626808.963689) can0 7E8#04410C25DC000000
(1700626809.045125) can0 7E0#0322128C00000000
(1700626809.054332) can0 7E8#0762128C00000D3D
(1700626809.136042) can0 7DF#02010CAAAAAAAAAA
(1700626809.143660) can0 7E8#04410C25F4000000
(1700626809.226900) can0 7E0#0322128C00000000
(1700626809.233726) can0 7E8#0762128C00000D5E
(1700626809.317815) can0 7DF#02010CAAAAAAAAAA
(1700626809.323878) can0 7E8#04410C25FC000000
(1700626809.408684) can0 7E0#0322128C00000000
(1700626809.413927) can0 7E8#0762128C00000D6D
(1700626809.499602) can0 7DF#02010CAAAAAAAAAA
(1700626809.503639) can0 7E8#04410C261C000000
(1700626809.590453) can0 7E0#0322128C00000000
(1700626809.593701) can0 7E8#0762128C00000D92
(1700626809.681392) can0 7DF#02010CAAAAAAAAAA
(1700626809.683635) can0 7E8#04410C2628000000
(1700626809.772291) can0 7E0#0322128C00000000
(1700626809.783981) can0 7E8#0762128C00000DBD
(1700626809.863226) can0 7DF#02010CAAAAAAAAAA
(1700626809.873630) can0 7E8#04410C2656000000
(1700626809.954029) can0 7E0#0322128C00000000
(1700626809.963684) can0 7E8#0762128C00000DB9
(1700626810.044977) can0 7DF#02010CAAAAAAAAAA
(1700626810.053606) can0 7E8#04410C265E000000
(1700626810.135802) can0 7E0#0322128C00000000
(1700626810.143635) can0 7E8#0762128C00000DAC
(1700626810.226732) can0 7DF#02010CAAAAAAAAAA
(1700626810.233551) can0 7E8#04410C2674000000
(1700626810.317553) can0 7E0#0322128C00000000
(1700626810.323657) can0 7E8#0762128C00000DA5
(1700626810.408524) can0 7DF#02010CAAAAAAAAAA
(1700626810.414303) can0 7E8#04410C2674000000
(1700626810.499375) can0 7E0#0322128C00000000
(1700626810.503880) can0 7E8#0762128C00000D5C
(1700626810.590330) can0 7DF#02010CAAAAAAAAAA
(1700626810.593575) can0 7E8#04410C2678000000
(1700626810.681132) can0 7E0#0322128C00000000
(1700626810.683645) can0 7E8#0762128C0000078F
(1700626810.772130) can0 7DF#02010CAAAAAAAAAA
(1700626810.783946) can0 7E8#04410C2682000000
(1700626810.862903) can0 7E0#0322128C00000000
(1700626810.873626) can0 7E8#0762128C00000421
(1700626810.953830) can0 7DF#02010CAAAAAAAAAA
(1700626810.963566) can0 7E8#04410C2674000000
(1700626811.044677) can0 7E0#0322128C00000000
(1700626811.053649) can0 7E8#0762128C00000349
(1700626811.135622) can0 7DF#02010CAAAAAAAAAA
(1700626811.143686) can0 7E8#04410C2666000000
(1700626811.226482) can0 7E0#0322128C00000000
(1700626811.233571) can0 7E8#0762128C000004B1
(1700626811.317388) can0 7DF#02010CAAAAAAAAAA
(1700626811.323535) can0 7E8#04410C266E000000
(1700626811.408275) can0 7E0#0322128C00000000
(1700626811.413981) can0 7E8#0762128C00000915
(1700626811.499227) can0 7DF#02010CAAAAAAAAAA
(1700626811.503527) can0 7E8#04410C2660000000
(1700626811.590020) can0 7E0#0322128C00000000
(1700626811.593605) can0 7E8#0762128C00000B12
(1700626811.680948) can0 7DF#02010CAAAAAAAAAA
(1700626811.683520) can0 7E8#04410C265A000000
(1700626811.771795) can0 7E0#0322128C00000000
(1700626811.783574) can0 7E8#0762128C00000BBD
(1700626811.862709) can0 7DF#02010CAAAAAAAAAA
(1700626811.873517) can0 7E8#04410C2676000000
(1700626811.953549) can0 7E0#0322128C00000000
(1700626811.964130) can0 7E8#0762128C00000BAE
(1700626812.044500) can0 7DF#02010CAAAAAAAAAA
(1700626812.053639) can0 7E8#04410C267E000000
(1700626812.135349) can0 7E0#0322128C00000000
(1700626812.143551) can0 7E8#0762128C00000BA3
(1700626812.226300) can0 7DF#02010CAAAAAAAAAA
(1700626812.233549) can0 7E8#04410C2690000000
(1700626812.317130) can0 7E0#0322128C00000000
(1700626812.323566) can0 7E8#0762128C00000BD1
(1700626812.408021) can0 7DF#02010CAAAAAAAAAA
(1700626812.414120) can0 7E8#04410C2690000000
(1700626812.498889) can0 7E0#0322128C00000000
(1700626812.503688) can0 7E8#0762128C00000BE4
(1700626812.589790) can0 7DF#02010CAAAAAAAAAA
(1700626812.593508) can0 7E8#04410C2688000000
(1700626812.680636) can0 7E0#0322128C00000000
(1700626812.683532) can0 7E8#0762128C00000BEA
(1700626812.771601) can0 7DF#02010CAAAAAAAAAA
(1700626812.783508) can0 7E8#04410C2698000000
(1700626812.862424) can0 7E0#0322128C00000000
(1700626812.863532) can0 7E8#0762128C00000BED
(1700626812.953352) can0 7DF#02010CAAAAAAAAAA
(1700626812.963516) can0 7E8#04410C26AA000000
(1700626813.044227) can0 7E0#0322128C00000000
(1700626813.053629) can0 7E8#0762128C00000BD2
(1700626813.135180) can0 7DF#02010CAAAAAAAAAA
(1700626813.143536) can0 7E8#04410C26B8000000
(1700626813.233517) can0 7E8#0762128C00000BCB
(1700626813.316934) can0 7DF#02010CAAAAAAAAAA
(1700626813.323541) can0 7E8#04410C26C8000000
(1700626813.407750) can0 7E0#0322128C00000000
(1700626813.414131) can0 7E8#0762128C00000BC3
(1700626813.498708) can0 7DF#02010CAAAAAAAAAA
(1700626813.504011) can0 7E8#04410C26D4000000
(1700626813.589552) can0 7E0#0322128C00000000
(1700626813.593526) can0 7E8#0762128C00000BB4
(1700626813.680478) can0 7DF#02010CAAAAAAAAAA
(1700626813.683604) can0 7E8#04410C26E4000000
(1700626813.771337) can0 7E0#0322128C00000000
(1700626813.773835) can0 7E8#0762128C00000C03
(1700626813.862293) can0 7DF#02010CAAAAAAAAAA
(1700626813.863560) can0 7E8#04410C26E8000000
(1700626813.953128) can0 7E0#0322128C00000000
(1700626813.963515) can0 7E8#0762128C00000C2F
(1700626814.044051) can0 7DF#02010CAAAAAAAAAA
(1700626814.053678) can0 7E8#04410C26F6000000
(1700626814.134872) can0 7E0#0322128C00000000
(1700626814.143526) can0 7E8#0762128C00000C3B
(1700626814.225816) can0 7DF#02010CAAAAAAAAAA
(1700626814.233507) can0 7E8#04410C2700000000
(1700626814.316639) can0 7E0#0322128C00000000
(1700626814.323524) can0 7E8#0762128C00000C3F
(1700626814.407573) can0 7DF#02010CAAAAAAAAAA
(1700626814.414130) can0 7E8#04410C2700000000
(1700626814.498430) can0 7E0#0322128C00000000
(1700626814.503507) can0 7E8#0762128C00000C59
(1700626814.589352) can0 7DF#02010CAAAAAAAAAA
(1700626814.593521) can0 7E8#04410C2720000000
(1700626814.680226) can0 7E0#0322128C00000000
(1700626814.683514) can0 7E8#0762128C00000C45
(1700626814.771131) can0 7DF#02010CAAAAAAAAAA
(1700626814.783526) can0 7E8#04410C2724000000
(1700626814.861952) can0 7E0#0322128C00000000
(1700626814.863522) can0 7E8#0762128C00000AB5
(1700626814.952875) can0 7DF#02010CAAAAAAAAAA
(1700626814.963536) can0 7E8#04410C2732000000
(1700626815.043726) can0 7E0#0322128C00000000
(1700626815.053628) can0 7E8#0762128C00000490
(1700626815.134652) can0 7DF#02010CAAAAAAAAAA
(1700626815.143540) can0 7E8#04410C2702000000
(1700626815.225508) can0 7E0#0322128C00000000
(1700626815.233754) can0 7E8#0762128C000003B4
(1700626815.316429) can0 7DF#02010CAAAAAAAAAA
(1700626815.323535) can0 7E8#04410C270A000000
(1700626815.407302) can0 7E0#0322128C00000000
(1700626815.413918) can0 7E8#0762128C00000690
(1700626815.498227) can0 7DF#02010CAAAAAAAAAA
(1700626815.503335) can0 7E8#04410C270C000000
(1700626815.589026) can0 7E0#0322128C00000000
(1700626815.593981) can0 7E8#0762128C000008D9
(1700626815.679956) can0 7DF#02010CAAAAAAAAAA
(1700626815.683325) can0 7E8#04410C2706000000
(1700626815.770779) can0 7E0#0322128C00000000
(1700626815.773544) can0 7E8#0762128C000009D2
(1700626815.861727) can0 7DF#02010CAAAAAAAAAA
(1700626815.863308) can0 7E8#04410C2702000000
(1700626815.952551) can0 7E0#0322128C00000000
(1700626815.963555) can0 7E8#0762128C00000A68
(1700626816.043476) can0 7DF#02010CAAAAAAAAAA
(1700626816.053334) can0 7E8#04410C270C000000
(1700626816.134336) can0 7E0#0322128C00000000
(1700626816.143552) can0 7E8#0762128C00000A87
(1700626816.225260) can0 7DF#02010CAAAAAAAAAA
(1700626816.233296) can0 7E8#04410C2710000000
(1700626816.316114) can0 7E0#0322128C00000000
(1700626816.323310) can0 7E8#0762128C00000A6B
(1700626816.406980) can0 7DF#02010CAAAAAAAAAA
(1700626816.413358) can0 7E8#04410C2710000000
(1700626816.497811) can0 7E0#0322128C00000000
(1700626816.503526) can0 7E8#0762128C00000A73
(1700626816.588751) can0 7DF#02010CAAAAAAAAAA
(1700626816.593257) can0 7E8#04410C270A000000
(1700626816.679578) can0 7E0#0322128C00000000
(1700626816.683332) can0 7E8#0762128C00000A5B
(1700626816.770520) can0 7DF#02010CAAAAAAAAAA
(1700626816.773690) can0 7E8#04410C271C000000
(1700626816.861375) can0 7E0#0322128C00000000
(1700626816.863330) can0 7E8#0762128C00000A76
(1700626816.952309) can0 7DF#02010CAAAAAAAAAA
(1700626816.953263) can0 7E8#04410C271A000000
(1700626817.043127) can0 7E0#0322128C00000000
(1700626817.053730) can0 7E8#0762128C00000A6E
(1700626817.134056) can0 7DF#02010CAAAAAAAAAA
(1700626817.143231) can0 7E8#04410C271E000000
(1700626817.224911) can0 7E0#0322128C00000000
(1700626817.233305) can0 7E8#0762128C00000A77
(1700626817.315823) can0 7DF#02010CAAAAAAAAAA
(1700626817.323236) can0 7E8#04410C2728000000
(1700626817.406658) can0 7E0#0322128C00000000
(1700626817.413862) can0 7E8#0762128C00000A9A
(1700626817.497568) can0 7DF#02010CAAAAAAAAAA
(1700626817.503230) can0 7E8#04410C271C000000
(1700626817.588405) can0 7E0#0322128C00000000
(1700626817.593276) can0 7E8#0762128C00000A69
(1700626817.679327) can0 7DF#02010CAAAAAAAAAA
(1700626817.683197) can0 7E8#04410C272E000000
(1700626817.770193) can0 7E0#0322128C00000000
(1700626817.773730) can0 7E8#0762128C00000A55
(1700626817.861126) can0 7DF#02010CAAAAAAAAAA
(1700626817.863183) can0 7E8#04410C2732000000
(1700626817.951933) can0 7E0#0322128C00000000
(1700626817.953255) can0 7E8#0762128C00000995
(1700626818.042851) can0 7DF#02010CAAAAAAAAAA
(1700626818.053175) can0 7E8#04410C2738000000
(1700626818.133698) can0 7E0#0322128C00000000
(1700626818.143231) can0 7E8#0762128C00000966
(1700626818.224632) can0 7DF#02010CAAAAAAAAAA
(1700626818.233174) can0 7E8#04410C2728000000
(1700626818.315464) can0 7E0#0322128C00000000
(1700626818.323259) can0 7E8#0762128C0000095E
(1700626818.406376) can0 7DF#02010CAAAAAAAAAA
(1700626818.413231) can0 7E8#04410C2728000000
(1700626818.497257) can0 7E0#0322128C00000000
(1700626818.503232) can0 7E8#0762128C00000960
(1700626818.588165) can0 7DF#02010CAAAAAAAAAA
(1700626818.593131) can0 7E8#04410C2740000000
(1700626818.678958) can0 7E0#0322128C00000000
(1700626818.683331) can0 7E8#0762128C000009B5
(1700626818.769886) can0 7DF#02010CAAAAAAAAAA
(1700626818.773566) can0 7E8#04410C2730000000
(1700626818.860732) can0 7E0#0322128C00000000
(1700626818.863226) can0 7E8#0762128C00000AA7
(1700626818.951636) can0 7DF#02010CAAAAAAAAAA
(1700626818.953130) can0 7E8#04410C2732000000
(1700626819.042476) can0 7E0#0322128C00000000
(1700626819.053189) can0 7E8#0762128C00000B22
(1700626819.133435) can0 7DF#02010CAAAAAAAAAA
(1700626819.143124) can0 7E8#04410C2744000000
(1700626819.224311) can0 7E0#0322128C00000000
(1700626819.233313) can0 7E8#0762128C00000B33
(1700626819.315233) can0 7DF#02010CAAAAAAAAAA
(1700626819.323174) can0 7E8#04410C273A000000
(1700626819.406061) can0 7E0#0322128C00000000
(1700626819.413163) can0 7E8#0762128C00000B28
(1700626819.497005) can0 7DF#02010CAAAAAAAAAA
(1700626819.503126) can0 7E8#04410C2758000000
(1700626819.587835) can0 7E0#0322128C00000000
(1700626819.593212) can0 7E8#0762128C00000B43
(1700626819.678771) can0 7DF#02010CAAAAAAAAAA
(1700626819.683126) can0 7E8#04410C2760000000
(1700626819.769625) can0 7E0#0322128C00000000
(1700626819.773193) can0 7E8#0762128C00000B47
(1700626819.860560) can0 7DF#02010CAAAAAAAAAA
(1700626819.863040) can0 7E8#04410C2766000000
(1700626819.951394) can0 7E0#0322128C00000000
(1700626819.953125) can0 7E8#0762128C00000B4D
(1700626820.042328) can0 7DF#02010CAAAAAAAAAA
(1700626820.043287) can0 7E8#04410C2782000000
(1700626820.133201) can0 7E0#0322128C00000000
(1700626820.143125) can0 7E8#0762128C00000B9A
(1700626820.224134) can0 7DF#02010CAAAAAAAAAA
(1700626820.233254) can0 7E8#04410C2774000000
(1700626820.314927) can0 7E0#0322128C00000000
(1700626820.323128) can0 7E8#0762128C00000B9F
(1700626820.405858) can0 7DF#02010CAAAAAAAAAA
(1700626820.413014) can0 7E8#04410C2774000000
(1700626820.496702) can0 7E0#0322128C00000000
(1700626820.503124) can0 7E8#0762128C00000B70
(1700626820.587624) can0 7DF#02010CAAAAAAAAAA
(1700626820.593003) can0 7E8#04410C2790000000
(1700626820.678476) can0 7E0#0322128C00000000
(1700626820.683126) can0 7E8#0762128C00000B1E
(1700626820.769416) can0 7DF#02010CAAAAAAAAAA
(1700626820.773002) can0 7E8#04410C2790000000
(1700626820.860297) can0 7E0#0322128C00000000
(1700626820.863048) can0 7E8#0762128C00000AD8
(1700626820.951230) can0 7DF#02010CAAAAAAAAAA
(1700626820.952976) can0 7E8#04410C2796000000
(1700626821.042019) can0 7E0#0322128C00000000
(1700626821.043047) can0 7E8#0762128C00000AF4
(1700626821.132958) can0 7DF#02010CAAAAAAAAAA
(1700626821.142974) can0 7E8#04410C279E000000
(1700626821.223807) can0 7E0#0322128C00000000
(1700626821.233601) can0 7E8#0762128C00000A8A
(1700626821.314749) can0 7DF#02010CAAAAAAAAAA
(1700626821.322954) can0 7E8#04410C27A2000000
(1700626821.405557) can0 7E0#0322128C00000000
(1700626821.413298) can0 7E8#0762128C00000A83
(1700626821.496481) can0 7DF#02010CAAAAAAAAAA
(1700626821.502944) can0 7E8#04410C27B2000000
(1700626821.587320) can0 7E0#0322128C00000000
(1700626821.593011) can0 7E8#0762128C00000A30
(1700626821.678261) can0 7DF#02010CAAAAAAAAAA
(1700626821.683127) can0 7E8#04410C279C000000
(1700626821.769125) can0 7E0#0322128C00000000
(1700626821.773330) can0 7E8#0762128C000004B3
(1700626821.859975) can0 7DF#02010CAAAAAAAAAA
(1700626821.862932) can0 7E8#04410C279C000000
(1700626821.950819) can0 7E0#0322128C00000000
(1700626821.953002) can0 7E8#0762128C000003B5
(1700626822.041729) can0 7DF#02010CAAAAAAAAAA
(1700626822.042931) can0 7E8#04410C2760000000
(1700626822.132607) can0 7E0#0322128C00000000
(1700626822.142980) can0 7E8#0762128C0000030A
(1700626822.223525) can0 7DF#02010CAAAAAAAAAA
(1700626822.232902) can0 7E8#04410C2756000000
(1700626822.314379) can0 7E0#0322128C00000000
(1700626822.322977) can0 7E8#0762128C00000294
(1700626822.405314) can0 7DF#02010CAAAAAAAAAA
(1700626822.413128) can0 7E8#04410C2756000000
(1700626822.496130) can0 7E0#0322128C00000000
(1700626822.502950) can0 7E8#0762128C000003BD
(1700626822.587038) can0 7DF#02010CAAAAAAAAAA
(1700626822.593035) can0 7E8#04410C2738000000
(1700626822.677877) can0 7E0#0322128C00000000
(1700626822.683330) can0 7E8#0762128C00000590
(1700626822.768817) can0 7DF#02010CAAAAAAAAAA
(1700626822.772875) can0 7E8#04410C273C000000
(1700626822.859663) can0 7E0#0322128C00000000
(1700626822.863226) can0 7E8#0762128C00000675
(1700626822.950604) can0 7DF#02010CAAAAAAAAAA
(1700626822.953125) can0 7E8#04410C2732000000
(1700626823.041422) can0 7E0#0322128C00000000
(1700626823.043006) can0 7E8#0762128C00000737
(1700626823.132375) can0 7DF#02010CAAAAAAAAAA
(1700626823.142849) can0 7E8#04410C270E000000
(1700626823.223252) can0 7E0#0322128C00000000
(1700626823.232918) can0 7E8#0762128C000008C7
(1700626823.314127) can0 7DF#02010CAAAAAAAAAA
(1700626823.322835) can0 7E8#04410C2714000000
(1700626823.404980) can0 7E0#0322128C00000000
(1700626823.412914) can0 7E8#0762128C0000099D
(1700626823.495936) can0 7DF#02010CAAAAAAAAAA
(1700626823.502829) can0 7E8#04410C2714000000
(1700626823.586762) can0 7E0#0322128C00000000
(1700626823.592895) can0 7E8#0762128C000009AA
(1700626823.677697) can0 7DF#02010CAAAAAAAAAA
(1700626823.682830) can0 7E8#04410C2706000000
(1700626823.768536) can0 7E0#0322128C00000000
(1700626823.772895) can0 7E8#0762128C00000994
(1700626823.859474) can0 7DF#02010CAAAAAAAAAA
(1700626823.862820) can0 7E8#04410C2714000000
(1700626823.950330) can0 7E0#0322128C00000000
(1700626823.952875) can0 7E8#0762128C0000096A
(1700626824.041270) can0 7DF#02010CAAAAAAAAAA
(1700626824.042794) can0 7E8#04410C2718000000
(1700626824.132126) can0 7E0#0322128C00000000
(1700626824.142875) can0 7E8#0762128C0000096E
(1700626824.223002) can0 7DF#02010CAAAAAAAAAA
(1700626824.232787) can0 7E8#04410C2714000000
(1700626824.313847) can0 7E0#0322128C00000000
(1700626824.322874) can0 7E8#0762128C00000A90
(1700626824.404752) can0 7DF#02010CAAAAAAAAAA
(1700626824.413125) can0 7E8#04410C2714000000
(1700626824.495608) can0 7E0#0322128C00000000
(1700626824.502834) can0 7E8#0762128C00000AC4
(1700626824.586540) can0 7DF#02010CAAAAAAAAAA
(1700626824.592770) can0 7E8#04410C2710000000
(1700626824.677374) can0 7E0#0322128C00000000
(1700626824.682851) can0 7E8#0762128C00000AAF
(1700626824.768328) can0 7DF#02010CAAAAAAAAAA
(1700626824.772893) can0 7E8#04410C272C000000
(1700626824.859196) can0 7E0#0322128C00000000
(1700626824.862818) can0 7E8#0762128C00000AA1
(1700626824.950123) can0 7DF#02010CAAAAAAAAAA
(1700626824.952750) can0 7E8#04410C2724000000
(1700626825.040913) can0 7E0#0322128C00000000
(1700626825.042806) can0 7E8#0762128C00000AB0
(1700626825.131851) can0 7DF#02010CAAAAAAAAAA
(1700626825.142747) can0 7E8#04410C2732000000
(1700626825.222683) can0 7E0#0322128C00000000
(1700626825.232798) can0 7E8#0762128C00000B2E
(1700626825.313607) can0 7DF#02010CAAAAAAAAAA
(1700626825.322725) can0 7E8#04410C2744000000
(1700626825.404440) can0 7E0#0322128C00000000
(1700626825.413128) can0 7E8#0762128C00000B40
(1700626825.495383) can0 7DF#02010CAAAAAAAAAA
(1700626825.502735) can0 7E8#04410C273E000000
(1700626825.586259) can0 7E0#0322128C00000000
(1700626825.592774) can0 7E8#0762128C00000B74
(1700626825.677165) can0 7DF#02010CAAAAAAAAAA
(1700626825.682726) can0 7E8#04410C275C000000
(1700626825.767978) can0 7E0#0322128C00000000
(1700626825.773163) can0 7E8#0762128C00000B8A
(1700626825.858893) can0 7DF#02010CAAAAAAAAAA
(1700626825.862896) can0 7E8#04410C2756000000
(1700626825.949751) can0 7E0#0322128C00000000
(1700626825.952760) can0 7E8#0762128C00000B96
(1700626826.040685) can0 7DF#02010CAAAAAAAAAA
(1700626826.042847) can0 7E8#04410C2760000000
(1700626826.131532) can0 7E0#0322128C00000000
(1700626826.142749) can0 7E8#0762128C00000B88
(1700626826.222481) can0 7DF#02010CAAAAAAAAAA
(1700626826.232900) can0 7E8#04410C2778000000
(1700626826.313340) can0 7E0#0322128C00000000
(1700626826.322853) can0 7E8#0762128C00000B85
(1700626826.404249) can0 7DF#02010CAAAAAAAAAA
(1700626826.413124) can0 7E8#04410C2778000000
(1700626826.495125) can0 7E0#0322128C00000000
(1700626826.502732) can0 7E8#0762128C00000B7B
(1700626826.586008) can0 7DF#02010CAAAAAAAAAA
(1700626826.592656) can0 7E8#04410C2774000000
(1700626826.676877) can0 7E0#0322128C00000000
(1700626826.682910) can0 7E8#0762128C00000B78
(1700626826.767762) can0 7DF#02010CAAAAAAAAAA
(1700626826.858628) can0 7E0#0322128C00000000
(1700626826.862728) can0 7E8#0762128C00000B89
(1700626826.949535) can0 7DF#02010CAAAAAAAAAA
(1700626826.952632) can0 7E8#04410C278E000000
(1700626827.040383) can0 7E0#0322128C00000000
(1700626827.042688) can0 7E8#0762128C00000B81
(1700626827.131327) can0 7DF#02010CAAAAAAAAAA
(1700626827.132876) can0 7E8#04410C2794000000
(1700626827.222208) can0 7E0#0322128C00000000
(1700626827.233125) can0 7E8#0762128C00000B4B
(1700626827.313133) can0 7DF#02010CAAAAAAAAAA
(1700626827.322977) can0 7E8#04410C2798000000
(1700626827.403931) can0 7E0#0322128C00000000
(1700626827.412914) can0 7E8#0762128C00000ABE
(1700626827.494884) can0 7DF#02010CAAAAAAAAAA
(1700626827.502602) can0 7E8#04410C279E000000
(1700626827.585735) can0 7E0#0322128C00000000
(1700626827.592662) can0 7E8#0762128C00000A56
(1700626827.676673) can0 7DF#02010CAAAAAAAAAA
(1700626827.682626) can0 7E8#04410C27A8000000
(1700626827.767502) can0 7E0#0322128C00000000
(1700626827.772926) can0 7E8#0762128C00000A2F
(1700626827.858422) can0 7DF#02010CAAAAAAAAAA
(1700626827.862601) can0 7E8#04410C27A0000000
(1700626827.949310) can0 7E0#0322128C00000000
(1700626827.952650) can0 7E8#0762128C00000A27
(1700626828.040255) can0 7DF#02010CAAAAAAAAAA
(1700626828.042697) can0 7E8#04410C27AE000000
(1700626828.131053) can0 7E0#0322128C00000000
(1700626828.132657) can0 7E8#0762128C00000A4D
(1700626828.221975) can0 7DF#02010CAAAAAAAAAA
(1700626828.232683) can0 7E8#04410C27B2000000
(1700626828.312796) can0 7E0#0322128C00000000
(1700626828.322624) can0 7E8#0762128C00000A4C
(1700626828.403731) can0 7DF#02010CAAAAAAAAAA
(1700626828.412793) can0 7E8#04410C27B2000000
(1700626828.494575) can0 7E0#0322128C00000000
(1700626828.502601) can0 7E8#0762128C00000A1A
(1700626828.585504) can0 7DF#02010CAAAAAAAAAA
(1700626828.592529) can0 7E8#04410C27BA000000
(1700626828.676334) can0 7E0#0322128C00000000
(1700626828.682852) can0 7E8#0762128C000009FB
(1700626828.767300) can0 7DF#02010CAAAAAAAAAA
(1700626828.772875) can0 7E8#04410C27A2000000
(1700626828.858124) can0 7E0#0322128C00000000
(1700626828.862602) can0 7E8#0762128C000009E3
(1700626828.949020) can0 7DF#02010CAAAAAAAAAA
(1700626828.952517) can0 7E8#04410C27C6000000
(1700626829.039875) can0 7E0#0322128C00000000
(1700626829.042574) can0 7E8#0762128C000009DB
(1700626829.130806) can0 7DF#02010CAAAAAAAAAA
(1700626829.132503) can0 7E8#04410C27B2000000
(1700626829.221663) can0 7E0#0322128C00000000
(1700626829.232582) can0 7E8#0762128C000009ED
(1700626829.312558) can0 7DF#02010CAAAAAAAAAA
(1700626829.322503) can0 7E8#04410C27B6000000
(1700626829.403390) can0 7E0#0322128C00000000
(1700626829.412794) can0 7E8#0762128C000004EB
(1700626829.494356) can0 7DF#02010CAAAAAAAAAA
(1700626829.502680) can0 7E8#04410C2774000000
(1700626829.585201) can0 7E0#0322128C00000000
(1700626829.593191) can0 7E8#0762128C000003B8
(1700626829.676126) can0 7DF#02010CAAAAAAAAAA
(1700626829.682479) can0 7E8#04410C278C000000
(1700626829.766956) can0 7E0#0322128C00000000
(1700626829.772560) can0 7E8#0762128C00000426
(1700626829.857902) can0 7DF#02010CAAAAAAAAAA
(1700626829.862476) can0 7E8#04410C2788000000
(1700626829.948749) can0 7E0#0322128C00000000
(1700626829.952517) can0 7E8#0762128C000006F2
(1700626830.039655) can0 7DF#02010CAAAAAAAAAA
(1700626830.042452) can0 7E8#04410C2768000000
(1700626830.130508) can0 7E0#0322128C00000000
(1700626830.132528) can0 7E8#0762128C000008A7
(1700626830.221419) can0 7DF#02010CAAAAAAAAAA
(1700626830.222679) can0 7E8#04410C2772000000
(1700626830.312303) can0 7E0#0322128C00000000
(1700626830.322533) can0 7E8#0762128C000009D6
(1700626830.403235) can0 7DF#02010CAAAAAAAAAA
(1700626830.412879) can0 7E8#04410C2772000000
(1700626830.494130) can0 7E0#0322128C00000000
(1700626830.502505) can0 7E8#0762128C00000ACE
(1700626830.585002) can0 7DF#02010CAAAAAAAAAA
(1700626830.592421) can0 7E8#04410C2772000000
(1700626830.675849) can0 7E0#0322128C00000000
(1700626830.682505) can0 7E8#0762128C00000ACE
(1700626830.766762) can0 7DF#02010CAAAAAAAAAA
(1700626830.772578) can0 7E8#04410C2776000000
(1700626830.857623) can0 7E0#0322128C00000000
(1700626830.862702) can0 7E8#0762128C00000AB2
(1700626830.948540) can0 7DF#02010CAAAAAAAAAA
(1700626830.952397) can0 7E8#04410C2788000000
(1700626831.039389) can0 7E0#0322128C00000000
(1700626831.042637) can0 7E8#0762128C00000A85
(1700626831.130326) can0 7DF#02010CAAAAAAAAAA
(1700626831.142584) can0 7E8#04410C2776000000
(1700626831.221182) can0 7E0#0322128C00000000
(1700626831.232452) can0 7E8#0762128C00000A65
(1700626831.312109) can0 7DF#02010CAAAAAAAAAA
(1700626831.322394) can0 7E8#04410C278C000000
(1700626831.402901) can0 7E0#0322128C00000000
(1700626831.412522) can0 7E8#0762128C00000A7B
(1700626831.493850) can0 7DF#02010CAAAAAAAAAA
(1700626831.502531) can0 7E8#04410C277C000000
(1700626831.584692) can0 7E0#0322128C00000000
(1700626831.592428) can0 7E8#0762128C00000A4C
(1700626831.675607) can0 7DF#02010CAAAAAAAAAA
(1700626831.766442) can0 7E0#0322128C00000000
(1700626831.772532) can0 7E8#0762128C000008D1
(1700626831.857371) can0 7DF#02010CAAAAAAAAAA
(1700626831.862481) can0 7E8#04410C279C000000
(1700626831.948251) can0 7E0#0322128C00000000
(1700626831.952429) can0 7E8#0762128C0000089A
(1700626832.039184) can0 7DF#02010CAAAAAAAAAA
(1700626832.042726) can0 7E8#04410C2780000000
(1700626832.129980) can0 7E0#0322128C00000000
(1700626832.132400) can0 7E8#0762128C000008D1
(1700626832.220916) can0 7DF#02010CAAAAAAAAAA
(1700626832.222499) can0 7E8#04410C2770000000
(1700626832.311733) can0 7E0#0322128C00000000
(1700626832.322518) can0 7E8#0762128C00000877
(1700626832.402692) can0 7DF#02010CAAAAAAAAAA
(1700626832.412332) can0 7E8#04410C2770000000
(1700626832.493530) can0 7E0#0322128C00000000
(1700626832.502385) can0 7E8#0762128C0000087F
(1700626832.584446) can0 7DF#02010CAAAAAAAAAA
(1700626832.592375) can0 7E8#04410C276A000000
(1700626832.682373) can0 7E8#0762128C00000891
(1700626832.766254) can0 7DF#02010CAAAAAAAAAA
(1700626832.772352) can0 7E8#04410C277A000000
(1700626832.857050) can0 7E0#0322128C00000000
(1700626832.862672) can0 7E8#0762128C00000883
(1700626832.947973) can0 7DF#02010CAAAAAAAAAA
(1700626832.952442) can0 7E8#04410C2778000000
(1700626833.038820) can0 7E0#0322128C00000000
(1700626833.042423) can0 7E8#0762128C000008A4
(1700626833.129761) can0 7DF#02010CAAAAAAAAAA
(1700626833.132422) can0 7E8#04410C2768000000
(1700626833.220629) can0 7E0#0322128C00000000
(1700626833.222498) can0 7E8#0762128C000008C3
(1700626833.311504) can0 7DF#02010CAAAAAAAAAA
(1700626833.322453) can0 7E8#04410C2762000000
(1700626833.402374) can0 7E0#0322128C00000000
(1700626833.412555) can0 7E8#0762128C000008A3
(1700626833.493328) can0 7DF#02010CAAAAAAAAAA
(1700626833.502303) can0 7E8#04410C275C000000
(1700626833.584188) can0 7E0#0322128C00000000
(1700626833.592376) can0 7E8#0762128C00000889
(1700626833.675129) can0 7DF#02010CAAAAAAAAAA
(1700626833.682281) can0 7E8#04410C276E000000
(1700626833.765900) can0 7E0#0322128C00000000
(1700626833.772540) can0 7E8#0762128C00000875
(1700626833.856854) can0 7DF#02010CAAAAAAAAAA
(1700626833.862416) can0 7E8#04410C275C000000
(1700626833.947688) can0 7E0#0322128C00000000
(1700626833.952641) can0 7E8#0762128C00000872
(1700626834.038642) can0 7DF#02010CAAAAAAAAAA
(1700626834.042262) can0 7E8#04410C2762000000
(1700626834.129474) can0 7E0#0322128C00000000
(1700626834.132453) can0 7E8#0762128C00000988
(1700626834.220433) can0 7DF#02010CAAAAAAAAAA
(1700626834.222252) can0 7E8#04410C275A000000
(1700626834.311301) can0 7E0#0322128C00000000
(1700626834.322447) can0 7E8#0762128C00000A2E
(1700626834.402230) can0 7DF#02010CAAAAAAAAAA
(1700626834.412257) can0 7E8#04410C275A000000
(1700626834.493028) can0 7E0#0322128C00000000
(1700626834.502331) can0 7E8#0762128C00000A6E
(1700626834.583976) can0 7DF#02010CAAAAAAAAAA
(1700626834.592390) can0 7E8#04410C2760000000
(1700626834.674819) can0 7E0#0322128C00000000
(1700626834.682418) can0 7E8#0762128C00000A5C
(1700626834.765754) can0 7DF#02010CAAAAAAAAAA
(1700626834.772232) can0 7E8#04410C2778000000
(1700626834.856582) can0 7E0#0322128C00000000
(1700626834.862455) can0 7E8#0762128C00000A4B
(1700626834.947515) can0 7DF#02010CAAAAAAAAAA
(1700626834.952480) can0 7E8#04410C276E000000
(1700626835.038383) can0 7E0#0322128C00000000
(1700626835.042272) can0 7E8#0762128C00000AD0
(1700626835.129337) can0 7DF#02010CAAAAAAAAAA
(1700626835.132190) can0 7E8#04410C2784000000
(1700626835.220195) can0 7E0#0322128C00000000
(1700626835.222260) can0 7E8#0762128C00000AEE
(1700626835.311133) can0 7DF#02010CAAAAAAAAAA
(1700626835.312497) can0 7E8#04410C2786000000
(1700626835.412549) can0 7E8#0762128C00000AAB
(1700626835.492855) can0 7DF#02010CAAAAAAAAAA
(1700626835.502174) can0 7E8#04410C2794000000
(1700626835.583698) can0 7E0#0322128C00000000
(1700626835.592508) can0 7E8#0762128C00000A70
(1700626835.674624) can0 7DF#02010CAAAAAAAAAA
(1700626835.682171) can0 7E8#04410C2794000000
(1700626835.765451) can0 7E0#0322128C00000000
(1700626835.772625) can0 7E8#0762128C00000A0D
(1700626835.856393) can0 7DF#02010CAAAAAAAAAA
(1700626835.862127) can0 7E8#04410C278E000000
(1700626835.947255) can0 7E0#0322128C00000000
(1700626835.952232) can0 7E8#0762128C000009A5
(1700626836.038190) can0 7DF#02010CAAAAAAAAAA
(1700626836.042423) can0 7E8#04410C27A0000000
(1700626836.128981) can0 7E0#0322128C00000000
(1700626836.132222) can0 7E8#0762128C00000A60
(1700626836.219937) can0 7DF#02010CAAAAAAAAAA
(1700626836.222125) can0 7E8#04410C279C000000
(1700626836.310745) can0 7E0#0322128C00000000
(1700626836.312495) can0 7E8#0762128C00000ACA
(1700626836.401725) can0 7DF#02010CAAAAAAAAAA
(1700626836.412172) can0 7E8#04410C279C000000
(1700626836.492563) can0 7E0#0322128C00000000
(1700626836.502376) can0 7E8#0762128C00000AB9
(1700626836.583480) can0 7DF#02010CAAAAAAAAAA
(1700626836.592126) can0 7E8#04410C27AE000000
(1700626836.674328) can0 7E0#0322128C00000000
(1700626836.682173) can0 7E8#0762128C00000AB1
(1700626836.765283) can0 7DF#02010CAAAAAAAAAA
(1700626836.772125) can0 7E8#04410C27B6000000
(1700626836.856123) can0 7E0#0322128C00000000
(1700626836.862167) can0 7E8#0762128C00000AB3
(1700626836.947047) can0 7DF#02010CAAAAAAAAAA
(1700626836.952126) can0 7E8#04410C27C6000000
(1700626837.037905) can0 7E0#0322128C00000000
(1700626837.042177) can0 7E8#0762128C00000ABA
(1700626837.128811) can0 7DF#02010CAAAAAAAAAA
(1700626837.132123) can0 7E8#04410C27C4000000
(1700626837.219661) can0 7E0#0322128C00000000
(1700626837.222792) can0 7E8#0762128C00000AAC
(1700626837.310568) can0 7DF#02010CAAAAAAAAAA
(1700626837.312121) can0 7E8#04410C27D0000000
(1700626837.401423) can0 7E0#0322128C00000000
(1700626837.412127) can0 7E8#0762128C00000AE3
(1700626837.492375) can0 7DF#02010CAAAAAAAAAA
(1700626837.502034) can0 7E8#04410C27D4000000
(1700626837.583249) can0 7E0#0322128C00000000
(1700626837.592126) can0 7E8#0762128C00000B0C
(1700626837.674177) can0 7DF#02010CAAAAAAAAAA
(1700626837.682032) can0 7E8#04410C27E8000000
(1700626837.765006) can0 7E0#0322128C00000000
(1700626837.772226) can0 7E8#0762128C00000AF8
(1700626837.855932) can0 7DF#02010CAAAAAAAAAA
(1700626837.862028) can0 7E8#04410C27E8000000
(1700626837.946779) can0 7E0#0322128C00000000
(1700626837.952129) can0 7E8#0762128C00000AD1
(1700626838.037729) can0 7DF#02010CAAAAAAAAAA
(1700626838.042124) can0 7E8#04410C27FC000000
(1700626838.128540) can0 7E0#0322128C00000000
(1700626838.132121) can0 7E8#0762128C00000AC6
(1700626838.219474) can0 7DF#02010CAAAAAAAAAA
(1700626838.222051) can0 7E8#04410C27FC000000
(1700626838.310339) can0 7E0#0322128C00000000
(1700626838.312124) can0 7E8#0762128C00000AC3
(1700626838.401281) can0 7DF#02010CAAAAAAAAAA
(1700626838.412042) can0 7E8#04410C27FC000000
(1700626838.492125) can0 7E0#0322128C00000000
(1700626838.502477) can0 7E8#0762128C00000AB3
(1700626838.583041) can0 7DF#02010CAAAAAAAAAA
(1700626838.592023) can0 7E8#04410C280E000000
(1700626838.673884) can0 7E0#0322128C00000000
(1700626838.682372) can0 7E8#0762128C00000A60
(1700626838.764788) can0 7DF#02010CAAAAAAAAAA
(1700626838.772124) can0 7E8#04410C2806000000
(1700626838.855635) can0 7E0#0322128C00000000
(1700626838.862039) can0 7E8#0762128C00000A3D
(1700626838.946580) can0 7DF#02010CAAAAAAAAAA
(1700626838.952120) can0 7E8#04410C281C000000
(1700626839.037431) can0 7E0#0322128C00000000
(1700626839.042125) can0 7E8#0762128C00000A6D
(1700626839.128386) can0 7DF#02010CAAAAAAAAAA
(1700626839.132052) can0 7E8#04410C281E000000
(1700626839.222123) can0 7E8#0762128C00000ADA
(1700626839.310175) can0 7DF#02010CAAAAAAAAAA
(1700626839.312121) can0 7E8#04410C281E000000
(1700626839.401005) can0 7E0#0322128C00000000
(1700626839.402622) can0 7E8#0762128C00000B17
(1700626839.491938) can0 7DF#02010CAAAAAAAAAA
(1700626839.502125) can0 7E8#04410C283A000000
(1700626839.582789) can0 7E0#0322128C00000000
(1700626839.592042) can0 7E8#0762128C00000AF1
(1700626839.673751) can0 7DF#02010CAAAAAAAAAA
(1700626839.682354) can0 7E8#04410C282C000000
(1700626839.764578) can0 7E0#0322128C00000000
(1700626839.772253) can0 7E8#0762128C00000A92
(1700626839.855501) can0 7DF#02010CAAAAAAAAAA
(1700626839.862125) can0 7E8#04410C2842000000
(1700626839.946352) can0 7E0#0322128C00000000
(1700626839.952122) can0 7E8#0762128C00000A5B
(1700626840.037326) can0 7DF#02010CAAAAAAAAAA
(1700626840.042181) can0 7E8#04410C2840000000
(1700626840.128177) can0 7E0#0322128C00000000
(1700626840.132048) can0 7E8#0762128C00000A5C
(1700626840.219050) can0 7DF#02010CAAAAAAAAAA
(1700626840.222253) can0 7E8#04410C2854000000
(1700626840.309876) can0 7E0#0322128C00000000
(1700626840.312120) can0 7E8#0762128C00000A81
(1700626840.400815) can0 7DF#02010CAAAAAAAAAA
(1700626840.402047) can0 7E8#04410C2854000000
(1700626840.491652) can0 7E0#0322128C00000000
(1700626840.502129) can0 7E8#0762128C00000A5D
(1700626840.582599) can0 7DF#02010CAAAAAAAAAA
(1700626840.592002) can0 7E8#04410C2852000000
(1700626840.673441) can0 7E0#0322128C00000000
(1700626840.682125) can0 7E8#0762128C00000A4B
(1700626840.764350) can0 7DF#02010CAAAAAAAAAA
(1700626840.772227) can0 7E8#04410C2858000000
(1700626840.855225) can0 7E0#0322128C00000000
(1700626840.862131) can0 7E8#0762128C00000A57
(1700626840.946125) can0 7DF#02010CAAAAAAAAAA
(1700626840.952120) can0 7E8#04410C2862000000
(1700626841.036954) can0 7E0#0322128C00000000
(1700626841.042127) can0 7E8#0762128C00000A58
(1700626841.127875) can0 7DF#02010CAAAAAAAAAA
(1700626841.132202) can0 7E8#04410C285C000000
(1700626841.218707) can0 7E0#0322128C00000000
(1700626841.222126) can0 7E8#0762128C00000A64
(1700626841.309664) can0 7DF#02010CAAAAAAAAAA
(1700626841.312124) can0 7E8#04410C2878000000
(1700626841.400505) can0 7E0#0322128C00000000
(1700626841.402473) can0 7E8#0762128C00000A31
(1700626841.491422) can0 7DF#02010CAAAAAAAAAA
(1700626841.502028) can0 7E8#04410C2870000000
(1700626841.582301) can0 7E0#0322128C00000000
(1700626841.592272) can0 7E8#0762128C00000992
(1700626841.673257) can0 7DF#02010CAAAAAAAAAA
(1700626841.682042) can0 7E8#04410C2868000000
(1700626841.764130) can0 7E0#0322128C00000000
(1700626841.772202) can0 7E8#0762128C0000095C
(1700626841.854975) can0 7DF#02010CAAAAAAAAAA
(1700626841.862124) can0 7E8#04410C2878000000
(1700626841.945822) can0 7E0#0322128C00000000
(1700626841.952121) can0 7E8#0762128C00000937
(1700626842.036766) can0 7DF#02010CAAAAAAAAAA
(1700626842.042176) can0 7E8#04410C286A000000
(1700626842.127626) can0 7E0#0322128C00000000
(1700626842.132176) can0 7E8#0762128C000009E9
(1700626842.218539) can0 7DF#02010CAAAAAAAAAA
(1700626842.222124) can0 7E8#04410C2872000000
(1700626842.309369) can0 7E0#0322128C00000000
(1700626842.312223) can0 7E8#0762128C00000A06
(1700626842.400331) can0 7DF#02010CAAAAAAAAAA
(1700626842.402031) can0 7E8#04410C2872000000
(1700626842.491178) can0 7E0#0322128C00000000
(1700626842.492211) can0 7E8#0762128C000009F1
(1700626842.582126) can0 7DF#02010CAAAAAAAAAA
(1700626842.592054) can0 7E8#04410C287E000000
(1700626842.672914) can0 7E0#0322128C00000000
(1700626842.682126) can0 7E8#0762128C00000597
(1700626842.763850) can0 7DF#02010CAAAAAAAAAA
(1700626842.772183) can0 7E8#04410C2868000000
(1700626842.854672) can0 7E0#0322128C00000000
(1700626842.862127) can0 7E8#0762128C0000038E
(1700626842.945631) can0 7DF#02010CAAAAAAAAAA
(1700626842.952169) can0 7E8#04410C285E000000
(1700626843.036483) can0 7E0#0322128C00000000
(1700626843.042192) can0 7E8#0762128C000002E7
(1700626843.127383) can0 7DF#02010CAAAAAAAAAA
(1700626843.132121) can0 7E8#04410C282E000000
(1700626843.218249) can0 7E0#0322128C00000000
(1700626843.222125) can0 7E8#0762128C00000398
(1700626843.309202) can0 7DF#02010CAAAAAAAAAA
(1700626843.312181) can0 7E8#04410C282A000000
(1700626843.400001) can0 7E0#0322128C00000000
(1700626843.402022) can0 7E8#0762128C00000717
(1700626843.490951) can0 7DF#02010CAAAAAAAAAA
(1700626843.492176) can0 7E8#04410C2848000000
(1700626843.581767) can0 7E0#0322128C00000000
(1700626843.592127) can0 7E8#0762128C000009A4
(1700626843.672726) can0 7DF#02010CAAAAAAAAAA
(1700626843.682127) can0 7E8#04410C2828000000
(1700626843.763548) can0 7E0#0322128C00000000
(1700626843.772254) can0 7E8#0762128C00000A51
(1700626843.854499) can0 7DF#02010CAAAAAAAAAA
(1700626843.862162) can0 7E8#04410C282E000000
(1700626843.945355) can0 7E0#0322128C00000000
(1700626843.952178) can0 7E8#0762128C000009CA
(1700626844.036315) can0 7DF#02010CAAAAAAAAAA
(1700626844.042226) can0 7E8#04410C2822000000
(1700626844.127163) can0 7E0#0322128C00000000
(1700626844.132202) can0 7E8#0762128C0000098D
(1700626844.218042) can0 7DF#02010CAAAAAAAAAA
(1700626844.222165) can0 7E8#04410C2834000000
(1700626844.308877) can0 7E0#0322128C00000000
(1700626844.312179) can0 7E8#0762128C00000978
(1700626844.399804) can0 7DF#02010CAAAAAAAAAA
(1700626844.402126) can0 7E8#04410C2834000000
(1700626844.490646) can0 7E0#0322128C00000000
(1700626844.502126) can0 7E8#0762128C00000A12
(1700626844.581576) can0 7DF#02010CAAAAAAAAAA
(1700626844.592126) can0 7E8#04410C283C000000
(1700626844.672420) can0 7E0#0322128C00000000
(1700626844.682126) can0 7E8#0762128C000009D7
(1700626844.763350) can0 7DF#02010CAAAAAAAAAA
(1700626844.772253) can0 7E8#04410C282C000000
(1700626844.854224) can0 7E0#0322128C00000000
(1700626844.862204) can0 7E8#0762128C000009B4
(1700626844.945129) can0 7DF#02010CAAAAAAAAAA
(1700626844.951603) can0 7E8#04410C2844000000
(1700626845.035983) can0 7E0#0322128C00000000
(1700626845.042232) can0 7E8#0762128C00000939
(1700626845.126890) can0 7DF#02010CAAAAAAAAAA
(1700626845.131627) can0 7E8#04410C2834000000
(1700626845.217726) can0 7E0#0322128C00000000
(1700626845.222125) can0 7E8#0762128C000008F7
(1700626845.308657) can0 7DF#02010CAAAAAAAAAA
(1700626845.312204) can0 7E8#04410C2844000000
(1700626845.399512) can0 7E0#0322128C00000000
(1700626845.402122) can0 7E8#0762128C000008C5
(1700626845.490428) can0 7DF#02010CAAAAAAAAAA
(1700626845.492121) can0 7E8#04410C2836000000
(1700626845.581305) can0 7E0#0322128C00000000
(1700626845.592263) can0 7E8#0762128C000008C6
(1700626845.672225) can0 7DF#02010CAAAAAAAAAA
(1700626845.681570) can0 7E8#04410C2834000000
(1700626845.763020) can0 7E0#0322128C00000000
(1700626845.771644) can0 7E8#0762128C000008C1
(1700626845.853929) can0 7DF#02010CAAAAAAAAAA
(1700626845.861548) can0 7E8#04410C2834000000
(1700626845.944785) can0 7E0#0322128C00000000
(1700626845.952230) can0 7E8#0762128C000008F9
(1700626846.035736) can0 7DF#02010CAAAAAAAAAA
(1700626846.041540) can0 7E8#04410C282E000000
(1700626846.126569) can0 7E0#0322128C00000000
(1700626846.131601) can0 7E8#0762128C000009AA
(1700626846.217498) can0 7DF#02010CAAAAAAAAAA
(1700626846.222226) can0 7E8#04410C2844000000
(1700626846.308332) can0 7E0#0322128C00000000
(1700626846.311601) can0 7E8#0762128C00000A4D
(1700626846.399308) can0 7DF#02010CAAAAAAAAAA
(1700626846.401533) can0 7E8#04410C2844000000
(1700626846.490124) can0 7E0#0322128C00000000
(1700626846.502131) can0 7E8#0762128C00000A19
(1700626846.581028) can0 7DF#02010CAAAAAAAAAA
(1700626846.591513) can0 7E8#04410C2832000000
(1700626846.671875) can0 7E0#0322128C00000000
(1700626846.681570) can0 7E8#0762128C0000093C
(1700626846.762791) can0 7DF#02010CAAAAAAAAAA
(1700626846.771530) can0 7E8#04410C283E000000
(1700626846.853620) can0 7E0#0322128C00000000
(1700626846.862226) can0 7E8#0762128C000008EB
(1700626846.944580) can0 7DF#02010CAAAAAAAAAA
(1700626846.951504) can0 7E8#04410C282E000000
(1700626847.035419) can0 7E0#0322128C00000000
(1700626847.042263) can0 7E8#0762128C000008E0
(1700626847.126350) can0 7DF#02010CAAAAAAAAAA
(1700626847.131499) can0 7E8#04410C2826000000
(1700626847.217225) can0 7E0#0322128C00000000
(1700626847.221538) can0 7E8#0762128C000008F3
(1700626847.308108) can0 7DF#02010CAAAAAAAAAA
(1700626847.311474) can0 7E8#04410C2834000000
(1700626847.398953) can0 7E0#0322128C00000000
(1700626847.401533) can0 7E8#0762128C00000903
(1700626847.489876) can0 7DF#02010CAAAAAAAAAA
(1700626847.491500) can0 7E8#04410C2820000000
(1700626847.580701) can0 7E0#0322128C00000000
(1700626847.591521) can0 7E8#0762128C000008F2
(1700626847.671634) can0 7DF#02010CAAAAAAAAAA
(1700626847.681449) can0 7E8#04410C281E000000
(1700626847.762475) can0 7E0#0322128C00000000
(1700626847.771652) can0 7E8#0762128C000008A6
(1700626847.853524) can0 7DF#02010CAAAAAAAAAA
(1700626847.861434) can0 7E8#04410C280A000000
(1700626847.944276) can0 7E0#0322128C00000000
(1700626847.951505) can0 7E8#0762128C00000880
(1700626848.035231) can0 7DF#02010CAAAAAAAAAA
(1700626848.041443) can0 7E8#04410C280A000000
(1700626848.126033) can0 7E0#0322128C00000000
(1700626848.131521) can0 7E8#0762128C00000898
(1700626848.216941) can0 7DF#02010CAAAAAAAAAA
(1700626848.221411) can0 7E8#04410C27F8000000
(1700626848.307807) can0 7E0#0322128C00000000
(1700626848.312254) can0 7E8#0762128C0000089F
(1700626848.398751) can0 7DF#02010CAAAAAAAAAA
(1700626848.401401) can0 7E8#04410C27F8000000
(1700626848.489579) can0 7E0#0322128C00000000
(1700626848.501478) can0 7E8#0762128C000008A5
(1700626848.580511) can0 7DF#02010CAAAAAAAAAA
(1700626848.581634) can0 7E8#04410C27F8000000
(1700626848.671350) can0 7E0#0322128C00000000
(1700626848.681476) can0 7E8#0762128C00000890
(1700626848.762300) can0 7DF#02010CAAAAAAAAAA
(1700626848.771405) can0 7E8#04410C27DC000000
(1700626848.853125) can0 7E0#0322128C00000000
(1700626848.861451) can0 7E8#0762128C00000889
(1700626848.944025) can0 7DF#02010CAAAAAAAAAA
(1700626848.952293) can0 7E8#04410C27E0000000
(1700626849.034881) can0 7E0#0322128C00000000
(1700626849.042309) can0 7E8#0762128C0000088F
(1700626849.125778) can0 7DF#02010CAAAAAAAAAA
(1700626849.131375) can0 7E8#04410C27CA000000
(1700626849.216623) can0 7E0#0322128C00000000
(1700626849.221421) can0 7E8#0762128C0000088E
(1700626849.307540) can0 7DF#02010CAAAAAAAAAA
(1700626849.311560) can0 7E8#04410C27C8000000
(1700626849.398374) can0 7E0#0322128C00000000
(1700626849.401407) can0 7E8#0762128C00000891
(1700626849.489336) can0 7DF#02010CAAAAAAAAAA
(1700626849.491349) can0 7E8#04410C27BC000000
(1700626849.580189) can0 7E0#0322128C00000000
(1700626849.581403) can0 7E8#0762128C00000891
(1700626849.671124) can0 7DF#02010CAAAAAAAAAA
(1700626849.681351) can0 7E8#04410C27BE000000
(1700626849.761931) can0 7E0#0322128C00000000
(1700626849.771395) can0 7E8#0762128C00000897
(1700626849.852851) can0 7DF#02010CAAAAAAAAAA
(1700626849.861325) can0 7E8#04410C27A0000000
(1700626849.943699) can0 7E0#0322128C00000000
(1700626849.951382) can0 7E8#0762128C00000897
(1700626850.034645) can0 7DF#02010CAAAAAAAAAA
(1700626850.041327) can0 7E8#04410C27A4000000
(1700626850.125486) can0 7E0#0322128C00000000
(1700626850.131377) can0 7E8#0762128C0000088F
(1700626850.216409) can0 7DF#02010CAAAAAAAAAA
(1700626850.221532) can0 7E8#04410C2784000000
(1700626850.307292) can0 7E0#0322128C00000000
(1700626850.311372) can0 7E8#0762128C0000087D
(1700626850.398253) can0 7DF#02010CAAAAAAAAAA
(1700626850.401330) can0 7E8#04410C2784000000
(1700626850.489053) can0 7E0#0322128C00000000
(1700626850.501353) can0 7E8#0762128C00000851
(1700626850.579950) can0 7DF#02010CAAAAAAAAAA
(1700626850.581329) can0 7E8#04410C2784000000
(1700626850.670791) can0 7E0#0322128C00000000
(1700626850.681354) can0 7E8#0762128C00000890
(1700626850.761725) can0 7DF#02010CAAAAAAAAAA
(1700626850.771311) can0 7E8#04410C277E000000
(1700626850.852544) can0 7E0#0322128C00000000
(1700626850.861327) can0 7E8#0762128C00000840
(1700626850.943482) can0 7DF#02010CAAAAAAAAAA
(1700626850.951626) can0 7E8#04410C276C000000
(1700626851.034336) can0 7E0#0322128C00000000
(1700626851.041552) can0 7E8#0762128C000007F3
(1700626851.125296) can0 7DF#02010CAAAAAAAAAA
(1700626851.131327) can0 7E8#04410C2768000000
(1700626851.216124) can0 7E0#0322128C00000000
(1700626851.221523) can0 7E8#0762128C000007E9
(1700626851.307022) can0 7DF#02010CAAAAAAAAAA
(1700626851.311272) can0 7E8#04410C2756000000
(1700626851.397895) can0 7E0#0322128C00000000
(1700626851.401352) can0 7E8#0762128C00000830
(1700626851.488811) can0 7DF#02010CAAAAAAAAAA
(1700626851.491276) can0 7E8#04410C274E000000
(1700626851.579643) can0 7E0#0322128C00000000
(1700626851.581330) can0 7E8#0762128C00000811
(1700626851.670602) can0 7DF#02010CAAAAAAAAAA
(1700626851.681253) can0 7E8#04410C2738000000
(1700626851.761422) can0 7E0#0322128C00000000
(1700626851.771313) can0 7E8#0762128C000007B8
(1700626851.852356) can0 7DF#02010CAAAAAAAAAA
(1700626851.861252) can0 7E8#04410C2728000000
(1700626851.943232) can0 7E0#0322128C00000000
(1700626851.951329) can0 7E8#0762128C000007BB
(1700626852.034170) can0 7DF#02010CAAAAAAAAAA
(1700626852.041227) can0 7E8#04410C2732000000
(1700626852.124980) can0 7E0#0322128C00000000
(1700626852.131330) can0 7E8#0762128C000007C1
(1700626852.215901) can0 7DF#02010CAAAAAAAAAA
(1700626852.221226) can0 7E8#04410C2714000000
(1700626852.306745) can0 7E0#0322128C00000000
(1700626852.311291) can0 7E8#0762128C000007FB
(1700626852.397702) can0 7DF#02010CAAAAAAAAAA
(1700626852.401198) can0 7E8#04410C2714000000
(1700626852.488550) can0 7E0#0322128C00000000
(1700626852.491275) can0 7E8#0762128C0000089E
(1700626852.579477) can0 7DF#02010CAAAAAAAAAA
(1700626852.581191) can0 7E8#04410C2712000000
(1700626852.670326) can0 7E0#0322128C00000000
(1700626852.681443) can0 7E8#0762128C000009D5
(1700626852.761257) can0 7DF#02010CAAAAAAAAAA
(1700626852.771195) can0 7E8#04410C271C000000
(1700626852.852132) can0 7E0#0322128C00000000
(1700626852.861435) can0 7E8#0762128C00000A3E
(1700626852.943005) can0 7DF#02010CAAAAAAAAAA
(1700626852.951174) can0 7E8#04410C2706000000
(1700626853.033856) can0 7E0#0322128C00000000
(1700626853.041421) can0 7E8#0762128C00000A2E
(1700626853.124767) can0 7DF#02010CAAAAAAAAAA
(1700626853.131162) can0 7E8#04410C270E000000
(1700626853.215600) can0 7E0#0322128C00000000
(1700626853.221424) can0 7E8#0762128C000009DC
(1700626853.306526) can0 7DF#02010CAAAAAAAAAA
(1700626853.311125) can0 7E8#04410C270E000000
(1700626853.397394) can0 7E0#0322128C00000000
(1700626853.401402) can0 7E8#0762128C0000098D
(1700626853.488329) can0 7DF#02010CAAAAAAAAAA
(1700626853.491200) can0 7E8#04410C2710000000
(1700626853.579189) can0 7E0#0322128C00000000
(1700626853.581394) can0 7E8#0762128C00000999
(1700626853.670126) can0 7DF#02010CAAAAAAAAAA
(1700626853.671122) can0 7E8#04410C2704000000
(1700626853.760941) can0 7E0#0322128C00000000
(1700626853.771328) can0 7E8#0762128C0000099A
(1700626853.851851) can0 7DF#02010CAAAAAAAAAA
(1700626853.861124) can0 7E8#04410C270C000000
(1700626853.942684) can0 7E0#0322128C00000000
(1700626853.951329) can0 7E8#0762128C000009B7
(1700626854.033626) can0 7DF#02010CAAAAAAAAAA
(1700626854.041122) can0 7E8#04410C270A000000
(1700626854.124480) can0 7E0#0322128C00000000
(1700626854.131321) can0 7E8#0762128C00000A19
(1700626854.215389) can0 7DF#02010CAAAAAAAAAA
(1700626854.221126) can0 7E8#04410C270E000000
(1700626854.306266) can0 7E0#0322128C00000000
(1700626854.311313) can0 7E8#0762128C00000A66
(1700626854.397192) can0 7DF#02010CAAAAAAAAAA
(1700626854.401110) can0 7E8#04410C270E000000
(1700626854.488017) can0 7E0#0322128C00000000
(1700626854.491129) can0 7E8#0762128C00000A6D
(1700626854.578925) can0 7DF#02010CAAAAAAAAAA
(1700626854.581049) can0 7E8#04410C2716000000
(1700626854.669771) can0 7E0#0322128C00000000
(1700626854.671121) can0 7E8#0762128C00000A6D
(1700626854.760678) can0 7DF#02010CAAAAAAAAAA
(1700626854.771042) can0 7E8#04410C270E000000
(1700626854.851526) can0 7E0#0322128C00000000
(1700626854.861123) can0 7E8#0762128C00000A7C
(1700626854.942477) can0 7DF#02010CAAAAAAAAAA
(1700626854.951029) can0 7E8#04410C2714000000
(1700626855.033330) can0 7E0#0322128C00000000
(1700626855.041127) can0 7E8#0762128C00000A61
(1700626855.124257) can0 7DF#02010CAAAAAAAAAA
(1700626855.131018) can0 7E8#04410C271A000000
(1700626855.215060) can0 7E0#0322128C00000000
(1700626855.221125) can0 7E8#0762128C00000A09
(1700626855.306016) can0 7DF#02010CAAAAAAAAAA
(1700626855.311004) can0 7E8#04410C2714000000
(1700626855.396851) can0 7E0#0322128C00000000
(1700626855.401125) can0 7E8#0762128C000009D9
(1700626855.487761) can0 7DF#02010CAAAAAAAAAA
(1700626855.491000) can0 7E8#04410C270A000000
(1700626855.578629) can0 7E0#0322128C00000000
(1700626855.581127) can0 7E8#0762128C000009C7
(1700626855.669546) can0 7DF#02010CAAAAAAAAAA
(1700626855.671010) can0 7E8#04410C2718000000
(1700626855.760371) can0 7E0#0322128C00000000
(1700626855.771052) can0 7E8#0762128C000009C4
(1700626855.851320) can0 7DF#02010CAAAAAAAAAA
(1700626855.861501) can0 7E8#04410C270E000000
(1700626855.942165) can0 7E0#0322128C00000000
(1700626855.951031) can0 7E8#0762128C000009AC
(1700626856.033050) can0 7DF#02010CAAAAAAAAAA
(1700626856.041502) can0 7E8#04410C270C000000
(1700626856.123889) can0 7E0#0322128C00000000
(1700626856.131039) can0 7E8#0762128C000009D2
(1700626856.214817) can0 7DF#02010CAAAAAAAAAA
(1700626856.221527) can0 7E8#04410C2714000000
(1700626856.305661) can0 7E0#0322128C00000000
(1700626856.311021) can0 7E8#0762128C00000A0C
(1700626856.396625) can0 7DF#02010CAAAAAAAAAA
(1700626856.401522) can0 7E8#04410C2714000000
(1700626856.487475) can0 7E0#0322128C00000000
(1700626856.491010) can0 7E8#0762128C00000A0B
(1700626856.578377) can0 7DF#02010CAAAAAAAAAA
(1700626856.581504) can0 7E8#04410C2708000000
(1700626856.669263) can0 7E0#0322128C00000000
(1700626856.670999) can0 7E8#0762128C000009D0
(1700626856.760192) can0 7DF#02010CAAAAAAAAAA
(1700626856.761330) can0 7E8#04410C270C000000
(1700626856.851013) can0 7E0#0322128C00000000
(1700626856.861001) can0 7E8#0762128C0000098E
(1700626856.941914) can0 7DF#02010CAAAAAAAAAA
(1700626856.950914) can0 7E8#04410C2710000000
(1700626857.032780) can0 7E0#0322128C00000000
(1700626857.040976) can0 7E8#0762128C000009B8
(1700626857.123687) can0 7DF#02010CAAAAAAAAAA
(1700626857.130923) can0 7E8#04410C2702000000
(1700626857.214521) can0 7E0#0322128C00000000
(1700626857.220977) can0 7E8#0762128C000009E4
(1700626857.305425) can0 7DF#02010CAAAAAAAAAA
(1700626857.310897) can0 7E8#04410C2706000000
(1700626857.396328) can0 7E0#0322128C00000000
(1700626857.400972) can0 7E8#0762128C000009E1
(1700626857.487252) can0 7DF#02010CAAAAAAAAAA
(1700626857.490882) can0 7E8#04410C270E000000
(1700626857.578049) can0 7E0#0322128C00000000
(1700626857.580942) can0 7E8#0762128C000009E1
(1700626857.668979) can0 7DF#02010CAAAAAAAAAA
(1700626857.670874) can0 7E8#04410C2702000000
(1700626857.759817) can0 7E0#0322128C00000000
(1700626857.760979) can0 7E8#0762128C000009E5
(1700626857.850750) can0 7DF#02010CAAAAAAAAAA
(1700626857.860873) can0 7E8#04410C2700000000
(1700626857.941587) can0 7E0#0322128C00000000
(1700626857.950928) can0 7E8#0762128C000009ED
(1700626858.032533) can0 7DF#02010CAAAAAAAAAA
(1700626858.040852) can0 7E8#04410C2710000000
(1700626858.123383) can0 7E0#0322128C00000000
(1700626858.131033) can0 7E8#0762128C000009F2
(1700626858.214330) can0 7DF#02010CAAAAAAAAAA
(1700626858.220852) can0 7E8#04410C2700000000
(1700626858.305187) can0 7E0#0322128C00000000
(1700626858.311125) can0 7E8#0762128C00000A5D
(1700626858.396124) can0 7DF#02010CAAAAAAAAAA
(1700626858.400853) can0 7E8#04410C2700000000
(1700626858.486915) can0 7E0#0322128C00000000
(1700626858.491122) can0 7E8#0762128C00000ADB
(1700626858.577851) can0 7DF#02010CAAAAAAAAAA
(1700626858.580819) can0 7E8#04410C2712000000
(1700626858.668702) can0 7E0#0322128C00000000
(1700626858.671047) can0 7E8#0762128C00000B15
(1700626858.759721) can0 7DF#02010CAAAAAAAAAA
(1700626858.760825) can0 7E8#04410C271C000000
(1700626858.850511) can0 7E0#0322128C00000000
(1700626858.861124) can0 7E8#0762128C00000B36
(1700626858.941431) can0 7DF#02010CAAAAAAAAAA
(1700626858.950976) can0 7E8#04410C2710000000
(1700626859.032311) can0 7E0#0322128C00000000
(1700626859.041126) can0 7E8#0762128C00000B25
(1700626859.123252) can0 7DF#02010CAAAAAAAAAA
(1700626859.130808) can0 7E8#04410C2714000000
(1700626859.214056) can0 7E0#0322128C00000000
(1700626859.221052) can0 7E8#0762128C00000AEA
(1700626859.304984) can0 7DF#02010CAAAAAAAAAA
(1700626859.310782) can0 7E8#04410C2722000000
(1700626859.395821) can0 7E0#0322128C00000000
(1700626859.400981) can0 7E8#0762128C00000ADC
(1700626859.486750) can0 7DF#02010CAAAAAAAAAA
(1700626859.490772) can0 7E8#04410C2722000000
(1700626859.577579) can0 7E0#0322128C00000000
