(1700637492.161122) can0 7E0#0322128C00000000
(1700637492.163681) can0 7E8#0762128C000011BA
(1700637492.252007) can0 7DF#02010CAAAAAAAAAA
(1700637492.253600) can0 7E8#04410C1172000000
(1700637492.343260) can0 7E0#0322128C00000000
(1700637492.353661) can0 7E8#0762128C00001155
(1700637492.434207) can0 7DF#02010CAAAAAAAAAA
(1700637492.443606) can0 7E8#04410C1238000000
(1700637492.525461) can0 7E0#0322128C00000000
(1700637492.533670) can0 7E8#0762128C000011F0
(1700637492.616351) can0 7DF#02010CAAAAAAAAAA
(1700637492.623603) can0 7E8#04410C1252000000
(1700637492.707577) can0 7E0#0322128C00000000
(1700637492.713652) can0 7E8#0762128C00001273
(1700637492.798545) can0 7DF#02010CAAAAAAAAAA
(1700637492.803575) can0 7E8#04410C1284000000
(1700637492.889751) can0 7E0#0322128C00000000
(1700637492.893641) can0 7E8#0762128C000013BE
(1700637492.980658) can0 7DF#02010CAAAAAAAAAA
(1700637492.983774) can0 7E8#04410C12DA000000
(1700637493.071900) can0 7E0#0322128C00000000
(1700637493.073631) can0 7E8#0762128C00001368
(1700637493.162833) can0 7DF#02010CAAAAAAAAAA
(1700637493.173583) can0 7E8#04410C132C000000
(1700637493.254026) can0 7E0#0322128C00000000
(1700637493.263625) can0 7E8#0762128C0000124E
(1700637493.344935) can0 7DF#02010CAAAAAAAAAA
(1700637493.353554) can0 7E8#04410C132C000000
(1700637493.436161) can0 7E0#0322128C00000000
(1700637493.443612) can0 7E8#0762128C00001193
(1700637493.527108) can0 7DF#02010CAAAAAAAAAA
(1700637493.533557) can0 7E8#04410C13B2000000
(1700637493.618350) can0 7E0#0322128C00000000
(1700637493.623649) can0 7E8#0762128C00001143
(1700637493.709252) can0 7DF#02010CAAAAAAAAAA
(1700637493.713557) can0 7E8#04410C13E2000000
(1700637493.800526) can0 7E0#0322128C00000000
(1700637493.803919) can0 7E8#0762128C00000FD1
(1700637493.891458) can0 7DF#02010CAAAAAAAAAA
(1700637493.893807) can0 7E8#04410C13F0000000
(1700637493.982647) can0 7E0#0322128C00000000
(1700637493.983725) can0 7E8#0762128C00000D83
(1700637494.073582) can0 7DF#02010CAAAAAAAAAA
(1700637494.083709) can0 7E8#04410C142A000000
(1700637494.164741) can0 7E0#0322128C00000000
(1700637494.173584) can0 7E8#0762128C00000AB3
(1700637494.255666) can0 7DF#02010CAAAAAAAAAA
(1700637494.263530) can0 7E8#04410C147E000000
(1700637494.346860) can0 7E0#0322128C00000000
(1700637494.353577) can0 7E8#0762128C000008B0
(1700637494.437759) can0 7DF#02010CAAAAAAAAAA
(1700637494.443528) can0 7E8#04410C1492000000
(1700637494.528914) can0 7E0#0322128C00000000
(1700637494.533555) can0 7E8#0762128C000005FD
(1700637494.619855) can0 7DF#02010CAAAAAAAAAA
(1700637494.623703) can0 7E8#04410C1482000000
(1700637494.711013) can0 7E0#0322128C00000000
(1700637494.713559) can0 7E8#0762128C00000460
(1700637494.801916) can0 7DF#02010CAAAAAAAAAA
(1700637494.803504) can0 7E8#04410C1454000000
(1700637494.893100) can0 7E0#0322128C00000000
(1700637494.903680) can0 7E8#0762128C000003B5
(1700637494.983997) can0 7DF#02010CAAAAAAAAAA
(1700637494.993619) can0 7E8#04410C14B0000000
(1700637495.075151) can0 7E0#0322128C00000000
(1700637495.083549) can0 7E8#0762128C00000349
(1700637495.166060) can0 7DF#02010CAAAAAAAAAA
(1700637495.173605) can0 7E8#04410C1470000000
(1700637495.257208) can0 7E0#0322128C00000000
(1700637495.263539) can0 7E8#0762128C000002EA
(1700637495.348147) can0 7DF#02010CAAAAAAAAAA
(1700637495.353478) can0 7E8#04410C1470000000
(1700637495.439360) can0 7E0#0322128C00000000
(1700637495.443536) can0 7E8#0762128C000002AF
(1700637495.530247) can0 7DF#02010CAAAAAAAAAA
(1700637495.533477) can0 7E8#04410C1450000000
(1700637495.621450) can0 7E0#0322128C00000000
(1700637495.623515) can0 7E8#0762128C000002AA
(1700637495.712352) can0 7DF#02010CAAAAAAAAAA
(1700637495.713477) can0 7E8#04410C1440000000
(1700637495.803548) can0 7E0#0322128C00000000
(1700637495.813508) can0 7E8#0762128C0000029B
(1700637495.894456) can0 7DF#02010CAAAAAAAAAA
(1700637495.903453) can0 7E8#04410C142C000000
(1700637495.985601) can0 7E0#0322128C00000000
(1700637495.993496) can0 7E8#0762128C0000028E
(1700637496.076549) can0 7DF#02010CAAAAAAAAAA
(1700637496.083458) can0 7E8#04410C1416000000
(1700637496.167662) can0 7E0#0322128C00000000
(1700637496.173495) can0 7E8#0762128C00000288
(1700637496.258577) can0 7DF#02010CAAAAAAAAAA
(1700637496.263427) can0 7E8#04410C1410000000
(1700637496.349760) can0 7E0#0322128C00000000
(1700637496.353489) can0 7E8#0762128C00000282
(1700637496.440711) can0 7DF#02010CAAAAAAAAAA
(1700637496.443417) can0 7E8#04410C13D2000000
(1700637496.531870) can0 7E0#0322128C00000000
(1700637496.533483) can0 7E8#0762128C0000027E
(1700637496.622795) can0 7DF#02010CAAAAAAAAAA
(1700637496.633398) can0 7E8#04410C13BA000000
(1700637496.713979) can0 7E0#0322128C00000000
(1700637496.723703) can0 7E8#0762128C00000283
(1700637496.804889) can0 7DF#02010CAAAAAAAAAA
(1700637496.813396) can0 7E8#04410C13A4000000
(1700637496.896052) can0 7E0#0322128C00000000
(1700637496.903484) can0 7E8#0762128C0000027F
(1700637496.986978) can0 7DF#02010CAAAAAAAAAA
(1700637496.993352) can0 7E8#04410C13A6000000
(1700637497.078159) can0 7E0#0322128C00000000
(1700637497.083453) can0 7E8#0762128C00000298
(1700637497.169060) can0 7DF#02010CAAAAAAAAAA
(1700637497.173335) can0 7E8#04410C1374000000
(1700637497.260259) can0 7E0#0322128C00000000
(1700637497.263452) can0 7E8#0762128C000002A4
(1700637497.351153) can0 7DF#02010CAAAAAAAAAA
(1700637497.353352) can0 7E8#04410C1374000000
(1700637497.442348) can0 7E0#0322128C00000000
(1700637497.453427) can0 7E8#0762128C000002B9
(1700637497.533268) can0 7DF#02010CAAAAAAAAAA
(1700637497.543356) can0 7E8#04410C134A000000
(1700637497.624453) can0 7E0#0322128C00000000
(1700637497.633579) can0 7E8#0762128C000002B8
(1700637497.715356) can0 7DF#02010CAAAAAAAAAA
(1700637497.723353) can0 7E8#04410C1304000000
(1700637497.806512) can0 7E0#0322128C00000000
(1700637497.813422) can0 7E8#0762128C000002B2
(1700637497.897452) can0 7DF#02010CAAAAAAAAAA
(1700637497.903352) can0 7E8#04410C12BC000000
(1700637497.988576) can0 7E0#0322128C00000000
(1700637497.993352) can0 7E8#0762128C000002B4
(1700637498.079543) can0 7DF#02010CAAAAAAAAAA
(1700637498.083353) can0 7E8#04410C1268000000
(1700637498.170686) can0 7E0#0322128C00000000
(1700637498.173561) can0 7E8#0762128C000002B2
(1700637498.261611) can0 7DF#02010CAAAAAAAAAA
(1700637498.263514) can0 7E8#04410C10B8000000
(1700637498.352785) can0 7E0#0322128C00000000
(1700637498.363794) can0 7E8#0762128C0000031B
(1700637498.443720) can0 7DF#02010CAAAAAAAAAA
(1700637498.453456) can0 7E8#04410C0E96000000
(1700637498.534858) can0 7E0#0322128C00000000
(1700637498.543354) can0 7E8#0762128C000003DF
(1700637498.625782) can0 7DF#02010CAAAAAAAAAA
(1700637498.633253) can0 7E8#04410C0CE8000000
(1700637498.716956) can0 7E0#0322128C00000000
(1700637498.723610) can0 7E8#0762128C00000700
(1700637498.807849) can0 7DF#02010CAAAAAAAAAA
(1700637498.813249) can0 7E8#04410C0C36000000
(1700637498.899015) can0 7E0#0322128C00000000
(1700637498.903355) can0 7E8#0762128C00000791
(1700637498.989921) can0 7DF#02010CAAAAAAAAAA
(1700637498.993249) can0 7E8#04410C0BEA000000
(1700637499.081097) can0 7E0#0322128C00000000
(1700637499.083348) can0 7E8#0762128C000007C5
(1700637499.172001) can0 7DF#02010CAAAAAAAAAA
(1700637499.173235) can0 7E8#04410C0BAC000000
(1700637499.263167) can0 7E0#0322128C00000000
(1700637499.273510) can0 7E8#0762128C000007BE
(1700637499.354103) can0 7DF#02010CAAAAAAAAAA
(1700637499.363352) can0 7E8#04410C0BAC000000
(1700637499.445255) can0 7E0#0322128C00000000
(1700637499.453276) can0 7E8#0762128C000007C4
(1700637499.536163) can0 7DF#02010CAAAAAAAAAA
(1700637499.543211) can0 7E8#04410C0B54000000
(1700637499.627352) can0 7E0#0322128C00000000
(1700637499.633271) can0 7E8#0762128C000007E5
(1700637499.718257) can0 7DF#02010CAAAAAAAAAA
(1700637499.723209) can0 7E8#04410C0B86000000
(1700637499.809466) can0 7E0#0322128C00000000
(1700637499.813521) can0 7E8#0762128C000007C0
(1700637499.900393) can0 7DF#02010CAAAAAAAAAA
(1700637499.903201) can0 7E8#04410C0B4E000000
(1700637499.991552) can0 7E0#0322128C00000000
(1700637499.993650) can0 7E8#0762128C0000077B
(1700637500.082478) can0 7DF#02010CAAAAAAAAAA
(1700637500.093179) can0 7E8#04410C0B4A000000
(1700637500.173582) can0 7E0#0322128C00000000
(1700637500.183636) can0 7E8#0762128C0000075C
(1700637500.264536) can0 7DF#02010CAAAAAAAAAA
(1700637500.273164) can0 7E8#04410C0B44000000
(1700637500.355656) can0 7E0#0322128C00000000
(1700637500.363252) can0 7E8#0762128C00000734
(1700637500.446578) can0 7DF#02010CAAAAAAAAAA
(1700637500.453153) can0 7E8#04410C0B6A000000
(1700637500.537737) can0 7E0#0322128C00000000
(1700637500.543231) can0 7E8#0762128C000006FF
(1700637500.628659) can0 7DF#02010CAAAAAAAAAA
(1700637500.633355) can0 7E8#04410C0B7A000000
(1700637500.719851) can0 7E0#0322128C00000000
(1700637500.723579) can0 7E8#0762128C0000069E
(1700637500.810738) can0 7DF#02010CAAAAAAAAAA
(1700637500.813122) can0 7E8#04410C0B70000000
(1700637500.901889) can0 7E0#0322128C00000000
(1700637500.903225) can0 7E8#0762128C0000067C
(1700637500.992826) can0 7DF#02010CAAAAAAAAAA
(1700637501.003278) can0 7E8#04410C0B2A000000
(1700637501.083976) can0 7E0#0322128C00000000
(1700637501.093210) can0 7E8#0762128C00000697
(1700637501.174883) can0 7DF#02010CAAAAAAAAAA
(1700637501.183126) can0 7E8#04410C0B6E000000
(1700637501.266056) can0 7E0#0322128C00000000
(1700637501.273168) can0 7E8#0762128C00000651
(1700637501.356978) can0 7DF#02010CAAAAAAAAAA
(1700637501.363103) can0 7E8#04410C0B6E000000
(1700637501.448147) can0 7E0#0322128C00000000
(1700637501.453165) can0 7E8#0762128C00000551
(1700637501.539084) can0 7DF#02010CAAAAAAAAAA
(1700637501.543102) can0 7E8#04410C0F2A000000
(1700637501.630249) can0 7E0#0322128C00000000
(1700637501.633148) can0 7E8#0762128C000006DE
(1700637501.721152) can0 7DF#02010CAAAAAAAAAA
(1700637501.723348) can0 7E8#04410C12C2000000
(1700637501.812351) can0 7E0#0322128C00000000
(1700637501.823147) can0 7E8#0762128C00000AC0
(1700637501.903229) can0 7DF#02010CAAAAAAAAAA
(1700637501.913079) can0 7E8#04410C11FE000000
(1700637501.994451) can0 7E0#0322128C00000000
(1700637502.003141) can0 7E8#0762128C00000F54
(1700637502.085350) can0 7DF#02010CAAAAAAAAAA
(1700637502.093054) can0 7E8#04410C11CA000000
(1700637502.176539) can0 7E0#0322128C00000000
(1700637502.183095) can0 7E8#0762128C000010B1
(1700637502.267532) can0 7DF#02010CAAAAAAAAAA
(1700637502.273046) can0 7E8#04410C11D4000000
(1700637502.358702) can0 7E0#0322128C00000000
(1700637502.363266) can0 7E8#0762128C00001138
(1700637502.449621) can0 7DF#02010CAAAAAAAAAA
(1700637502.453248) can0 7E8#04410C121C000000
(1700637502.540866) can0 7E0#0322128C00000000
(1700637502.543121) can0 7E8#0762128C0000112F
(1700637502.631759) can0 7DF#02010CAAAAAAAAAA
(1700637502.633048) can0 7E8#04410C124C000000
(1700637502.722982) can0 7E0#0322128C00000000
(1700637502.733104) can0 7E8#0762128C000010AD
(1700637502.813910) can0 7DF#02010CAAAAAAAAAA
(1700637502.823019) can0 7E8#04410C12C4000000
(1700637502.905108) can0 7E0#0322128C00000000
(1700637502.913078) can0 7E8#0762128C00000E1B
(1700637502.996013) can0 7DF#02010CAAAAAAAAAA
(1700637503.003008) can0 7E8#04410C12FA000000
(1700637503.087201) can0 7E0#0322128C00000000
(1700637503.093078) can0 7E8#0762128C00000E25
(1700637503.178092) can0 7DF#02010CAAAAAAAAAA
(1700637503.183014) can0 7E8#04410C1350000000
(1700637503.269351) can0 7E0#0322128C00000000
(1700637503.273081) can0 7E8#0762128C00001045
(1700637503.360229) can0 7DF#02010CAAAAAAAAAA
(1700637503.362997) can0 7E8#04410C1350000000
(1700637503.451485) can0 7E0#0322128C00000000
(1700637503.453057) can0 7E8#0762128C0000112B
(1700637503.542393) can0 7DF#02010CAAAAAAAAAA
(1700637503.552992) can0 7E8#04410C13D6000000
(1700637503.633578) can0 7E0#0322128C00000000
(1700637503.643151) can0 7E8#0762128C00001172
(1700637503.724526) can0 7DF#02010CAAAAAAAAAA
(1700637503.732981) can0 7E8#04410C1440000000
(1700637503.815707) can0 7E0#0322128C00000000
(1700637503.823047) can0 7E8#0762128C000011BA
(1700637503.906648) can0 7DF#02010CAAAAAAAAAA
(1700637503.913181) can0 7E8#04410C14AA000000
(1700637503.997870) can0 7E0#0322128C00000000
(1700637504.003032) can0 7E8#0762128C0000122C
(1700637504.088777) can0 7DF#02010CAAAAAAAAAA
(1700637504.092958) can0 7E8#04410C1558000000
(1700637504.180000) can0 7E0#0322128C00000000
(1700637504.183171) can0 7E8#0762128C0000127D
(1700637504.270929) can0 7DF#02010CAAAAAAAAAA
(1700637504.273018) can0 7E8#04410C15F4000000
(1700637504.362160) can0 7E0#0322128C00000000
(1700637504.373200) can0 7E8#0762128C000012EB
(1700637504.453079) can0 7DF#02010CAAAAAAAAAA
(1700637504.462952) can0 7E8#04410C16A0000000
(1700637504.544355) can0 7E0#0322128C00000000
(1700637504.552988) can0 7E8#0762128C00001342
(1700637504.635236) can0 7DF#02010CAAAAAAAAAA
(1700637504.643080) can0 7E8#04410C173C000000
(1700637504.726504) can0 7E0#0322128C00000000
(1700637504.732986) can0 7E8#0762128C00001243
(1700637504.817410) can0 7DF#02010CAAAAAAAAAA
(1700637504.823352) can0 7E8#04410C17C0000000
(1700637504.908602) can0 7E0#0322128C00000000
(1700637504.913429) can0 7E8#0762128C0000108F
(1700637504.999567) can0 7DF#02010CAAAAAAAAAA
(1700637505.002904) can0 7E8#04410C188A000000
(1700637505.090735) can0 7E0#0322128C00000000
(1700637505.092958) can0 7E8#0762128C00000FC4
(1700637505.181665) can0 7DF#02010CAAAAAAAAAA
(1700637505.272882) can0 7E0#0322128C00000000
(1700637505.282954) can0 7E8#0762128C00000EF3
(1700637505.363819) can0 7DF#02010CAAAAAAAAAA
(1700637505.372867) can0 7E8#04410C19B0000000
(1700637505.455003) can0 7E0#0322128C00000000
(1700637505.462930) can0 7E8#0762128C00000E8E
(1700637505.545900) can0 7DF#02010CAAAAAAAAAA
(1700637505.552875) can0 7E8#04410C19B0000000
(1700637505.637107) can0 7E0#0322128C00000000
(1700637505.642931) can0 7E8#0762128C00000E70
(1700637505.727988) can0 7DF#02010CAAAAAAAAAA
(1700637505.732862) can0 7E8#04410C1A1C000000
(1700637505.819167) can0 7E0#0322128C00000000
(1700637505.822909) can0 7E8#0762128C0000079C
(1700637505.910097) can0 7DF#02010CAAAAAAAAAA
(1700637505.912857) can0 7E8#04410C19F2000000
(1700637506.001242) can0 7E0#0322128C00000000
(1700637506.013125) can0 7E8#0762128C0000055F
(1700637506.092163) can0 7DF#02010CAAAAAAAAAA
(1700637506.102854) can0 7E8#04410C1944000000
(1700637506.183334) can0 7E0#0322128C00000000
(1700637506.192916) can0 7E8#0762128C00000415
(1700637506.274271) can0 7DF#02010CAAAAAAAAAA
(1700637506.282852) can0 7E8#04410C172A000000
(1700637506.365462) can0 7E0#0322128C00000000
(1700637506.372891) can0 7E8#0762128C00000396
(1700637506.456346) can0 7DF#02010CAAAAAAAAAA
(1700637506.463028) can0 7E8#04410C13FA000000
(1700637506.547541) can0 7E0#0322128C00000000
(1700637506.552883) can0 7E8#0762128C0000057F
(1700637506.638457) can0 7DF#02010CAAAAAAAAAA
(1700637506.642827) can0 7E8#04410C1438000000
(1700637506.729576) can0 7E0#0322128C00000000
(1700637506.732861) can0 7E8#0762128C00000BBF
(1700637506.820519) can0 7DF#02010CAAAAAAAAAA
(1700637506.822792) can0 7E8#04410C13AC000000
(1700637506.911669) can0 7E0#0322128C00000000
(1700637506.922881) can0 7E8#0762128C00000F61
(1700637507.002577) can0 7DF#02010CAAAAAAAAAA
(1700637507.012791) can0 7E8#04410C145E000000
(1700637507.093790) can0 7E0#0322128C00000000
(1700637507.102856) can0 7E8#0762128C00001133
(1700637507.184738) can0 7DF#02010CAAAAAAAAAA
(1700637507.192789) can0 7E8#04410C1478000000
(1700637507.275918) can0 7E0#0322128C00000000
(1700637507.282900) can0 7E8#0762128C0000117D
(1700637507.366870) can0 7DF#02010CAAAAAAAAAA
(1700637507.372871) can0 7E8#04410C14AE000000
(1700637507.458099) can0 7E0#0322128C00000000
(1700637507.463040) can0 7E8#0762128C000011E1
(1700637507.549013) can0 7DF#02010CAAAAAAAAAA
(1700637507.552765) can0 7E8#04410C14AE000000
(1700637507.640235) can0 7E0#0322128C00000000
(1700637507.642824) can0 7E8#0762128C00001265
(1700637507.731178) can0 7DF#02010CAAAAAAAAAA
(1700637507.732744) can0 7E8#04410C1512000000
(1700637507.822452) can0 7E0#0322128C00000000
(1700637507.832807) can0 7E8#0762128C0000115F
(1700637507.913352) can0 7DF#02010CAAAAAAAAAA
(1700637507.922930) can0 7E8#04410C1558000000
(1700637508.004556) can0 7E0#0322128C00000000
(1700637508.013203) can0 7E8#0762128C000010C6
(1700637508.095495) can0 7DF#02010CAAAAAAAAAA
(1700637508.102749) can0 7E8#04410C15A2000000
(1700637508.186653) can0 7E0#0322128C00000000
(1700637508.192785) can0 7E8#0762128C00001047
(1700637508.277621) can0 7DF#02010CAAAAAAAAAA
(1700637508.282908) can0 7E8#04410C15CA000000
(1700637508.368826) can0 7E0#0322128C00000000
(1700637508.372775) can0 7E8#0762128C00000F84
(1700637508.459761) can0 7DF#02010CAAAAAAAAAA
(1700637508.462704) can0 7E8#04410C1624000000
(1700637508.550982) can0 7E0#0322128C00000000
(1700637508.552755) can0 7E8#0762128C00000F0B
(1700637508.641902) can0 7DF#02010CAAAAAAAAAA
(1700637508.652703) can0 7E8#04410C166A000000
(1700637508.733082) can0 7E0#0322128C00000000
(1700637508.742958) can0 7E8#0762128C00000E9C
(1700637508.823996) can0 7DF#02010CAAAAAAAAAA
(1700637508.832681) can0 7E8#04410C169A000000
(1700637508.915167) can0 7E0#0322128C00000000
(1700637508.922739) can0 7E8#0762128C00000E0E
(1700637509.006102) can0 7DF#02010CAAAAAAAAAA
(1700637509.012872) can0 7E8#04410C16C8000000
(1700637509.097276) can0 7E0#0322128C00000000
(1700637509.102727) can0 7E8#0762128C00000DE7
(1700637509.188185) can0 7DF#02010CAAAAAAAAAA
(1700637509.192680) can0 7E8#04410C170C000000
(1700637509.279409) can0 7E0#0322128C00000000
(1700637509.282739) can0 7E8#0762128C00000DA7
(1700637509.370350) can0 7DF#02010CAAAAAAAAAA
(1700637509.372646) can0 7E8#04410C1748000000
(1700637509.461527) can0 7E0#0322128C00000000
(1700637509.462726) can0 7E8#0762128C00000D81
(1700637509.552464) can0 7DF#02010CAAAAAAAAAA
(1700637509.562649) can0 7E8#04410C1748000000
(1700637509.643608) can0 7E0#0322128C00000000
(1700637509.652708) can0 7E8#0762128C00000CC3
(1700637509.734560) can0 7DF#02010CAAAAAAAAAA
(1700637509.742638) can0 7E8#04410C177C000000
(1700637509.825701) can0 7E0#0322128C00000000
(1700637509.832700) can0 7E8#0762128C000007CE
(1700637509.916638) can0 7DF#02010CAAAAAAAAAA
(1700637509.922644) can0 7E8#04410C175E000000
(1700637510.007782) can0 7E0#0322128C00000000
(1700637510.012704) can0 7E8#0762128C00000529
(1700637510.098704) can0 7DF#02010CAAAAAAAAAA
(1700637510.102611) can0 7E8#04410C1658000000
(1700637510.189863) can0 7E0#0322128C00000000
(1700637510.192673) can0 7E8#0762128C00000413
(1700637510.280786) can0 7DF#02010CAAAAAAAAAA
(1700637510.282598) can0 7E8#04410C152E000000
(1700637510.371953) can0 7E0#0322128C00000000
(1700637510.382667) can0 7E8#0762128C0000038B
(1700637510.462873) can0 7DF#02010CAAAAAAAAAA
(1700637510.472798) can0 7E8#04410C1254000000
(1700637510.554023) can0 7E0#0322128C00000000
(1700637510.562669) can0 7E8#0762128C00000383
(1700637510.644957) can0 7DF#02010CAAAAAAAAAA
(1700637510.652579) can0 7E8#04410C10CE000000
(1700637510.736130) can0 7E0#0322128C00000000
(1700637510.742640) can0 7E8#0762128C00000393
(1700637510.827051) can0 7DF#02010CAAAAAAAAAA
(1700637510.832578) can0 7E8#04410C0FDC000000
(1700637510.918233) can0 7E0#0322128C00000000
(1700637510.922639) can0 7E8#0762128C000003AD
(1700637511.009139) can0 7DF#02010CAAAAAAAAAA
(1700637511.012574) can0 7E8#04410C1318000000
(1700637511.100351) can0 7E0#0322128C00000000
(1700637511.102610) can0 7E8#0762128C000006B5
(1700637511.191253) can0 7DF#02010CAAAAAAAAAA
(1700637511.192705) can0 7E8#04410C12BE000000
(1700637511.282452) can0 7E0#0322128C00000000
(1700637511.292642) can0 7E8#0762128C00000C43
(1700637511.373351) can0 7DF#02010CAAAAAAAAAA
(1700637511.382554) can0 7E8#04410C1282000000
(1700637511.464545) can0 7E0#0322128C00000000
(1700637511.472629) can0 7E8#0762128C00000D3C
(1700637511.555460) can0 7DF#02010CAAAAAAAAAA
(1700637511.562554) can0 7E8#04410C1282000000
(1700637511.646603) can0 7E0#0322128C00000000
(1700637511.652855) can0 7E8#0762128C00000D84
(1700637511.737555) can0 7DF#02010CAAAAAAAAAA
(1700637511.742558) can0 7E8#04410C12BA000000
(1700637511.828703) can0 7E0#0322128C00000000
(1700637511.832599) can0 7E8#0762128C00000945
(1700637511.919628) can0 7DF#02010CAAAAAAAAAA
(1700637511.922558) can0 7E8#04410C12A2000000
(1700637512.010806) can0 7E0#0322128C00000000
(1700637512.012705) can0 7E8#0762128C000005DC
(1700637512.101734) can0 7DF#02010CAAAAAAAAAA
(1700637512.112930) can0 7E8#04410C12BA000000
(1700637512.192864) can0 7E0#0322128C00000000
(1700637512.202758) can0 7E8#0762128C000004BA
(1700637512.283788) can0 7DF#02010CAAAAAAAAAA
(1700637512.292558) can0 7E8#04410C129E000000
(1700637512.374948) can0 7E0#0322128C00000000
(1700637512.382558) can0 7E8#0762128C00000412
(1700637512.465850) can0 7DF#02010CAAAAAAAAAA
(1700637512.472527) can0 7E8#04410C127C000000
(1700637512.557016) can0 7E0#0322128C00000000
(1700637512.562613) can0 7E8#0762128C000003C3
(1700637512.647954) can0 7DF#02010CAAAAAAAAAA
(1700637512.652509) can0 7E8#04410C12B4000000
(1700637512.739115) can0 7E0#0322128C00000000
(1700637512.742557) can0 7E8#0762128C0000035E
(1700637512.830046) can0 7DF#02010CAAAAAAAAAA
(1700637512.832607) can0 7E8#04410C1254000000
(1700637512.921227) can0 7E0#0322128C00000000
(1700637512.922552) can0 7E8#0762128C00000337
(1700637513.012132) can0 7DF#02010CAAAAAAAAAA
(1700637513.022651) can0 7E8#04410C1286000000
(1700637513.103276) can0 7E0#0322128C00000000
(1700637513.112557) can0 7E8#0762128C00000315
(1700637513.194190) can0 7DF#02010CAAAAAAAAAA
(1700637513.202583) can0 7E8#04410C1242000000
(1700637513.285415) can0 7E0#0322128C00000000
(1700637513.292682) can0 7E8#0762128C000002FA
(1700637513.376351) can0 7DF#02010CAAAAAAAAAA
(1700637513.382558) can0 7E8#04410C1230000000
(1700637513.467482) can0 7E0#0322128C00000000
(1700637513.472556) can0 7E8#0762128C000002EA
(1700637513.558402) can0 7DF#02010CAAAAAAAAAA
(1700637513.562530) can0 7E8#04410C1230000000
(1700637513.649563) can0 7E0#0322128C00000000
(1700637513.652515) can0 7E8#0762128C000002D6
(1700637513.740488) can0 7DF#02010CAAAAAAAAAA
(1700637513.742553) can0 7E8#04410C124A000000
(1700637513.831626) can0 7E0#0322128C00000000
(1700637513.842669) can0 7E8#0762128C000002D3
(1700637513.922557) can0 7DF#02010CAAAAAAAAAA
(1700637513.932558) can0 7E8#04410C11FE000000
(1700637514.013682) can0 7E0#0322128C00000000
(1700637514.022705) can0 7E8#0762128C000002CF
(1700637514.104598) can0 7DF#02010CAAAAAAAAAA
(1700637514.112579) can0 7E8#04410C11FE000000
(1700637514.195750) can0 7E0#0322128C00000000
(1700637514.202560) can0 7E8#0762128C000002C7
(1700637514.286705) can0 7DF#02010CAAAAAAAAAA
(1700637514.292579) can0 7E8#04410C1206000000
(1700637514.377878) can0 7E0#0322128C00000000
(1700637514.382553) can0 7E8#0762128C000002C5
(1700637514.468785) can0 7DF#02010CAAAAAAAAAA
(1700637514.472552) can0 7E8#04410C11CE000000
(1700637514.559963) can0 7E0#0322128C00000000
(1700637514.562531) can0 7E8#0762128C000002C3
(1700637514.650862) can0 7DF#02010CAAAAAAAAAA
(1700637514.652530) can0 7E8#04410C11BA000000
(1700637514.742018) can0 7E0#0322128C00000000
(1700637514.752508) can0 7E8#0762128C000002C9
(1700637514.832957) can0 7DF#02010CAAAAAAAAAA
(1700637514.842650) can0 7E8#04410C11A2000000
(1700637514.924106) can0 7E0#0322128C00000000
(1700637514.932580) can0 7E8#0762128C000002D8
(1700637515.015005) can0 7DF#02010CAAAAAAAAAA
(1700637515.022578) can0 7E8#04410C1176000000
(1700637515.106184) can0 7E0#0322128C00000000
(1700637515.112578) can0 7E8#0762128C000002F1
(1700637515.197114) can0 7DF#02010CAAAAAAAAAA
(1700637515.202604) can0 7E8#04410C1172000000
(1700637515.288350) can0 7E0#0322128C00000000
(1700637515.292578) can0 7E8#0762128C000002FA
(1700637515.379201) can0 7DF#02010CAAAAAAAAAA
(1700637515.382604) can0 7E8#04410C111C000000
(1700637515.470389) can0 7E0#0322128C00000000
(1700637515.472552) can0 7E8#0762128C000002F8
(1700637515.561266) can0 7DF#02010CAAAAAAAAAA
(1700637515.562575) can0 7E8#04410C111C000000
(1700637515.652486) can0 7E0#0322128C00000000
(1700637515.662543) can0 7E8#0762128C000002E5
(1700637515.743356) can0 7DF#02010CAAAAAAAAAA
(1700637515.752538) can0 7E8#04410C10CE000000
(1700637515.834550) can0 7E0#0322128C00000000
(1700637515.842556) can0 7E8#0762128C000002E6
(1700637515.925474) can0 7DF#02010CAAAAAAAAAA
(1700637515.932558) can0 7E8#04410C1076000000
(1700637516.016602) can0 7E0#0322128C00000000
(1700637516.022604) can0 7E8#0762128C0000031B
(1700637516.107558) can0 7DF#02010CAAAAAAAAAA
(1700637516.112552) can0 7E8#04410C0E44000000
(1700637516.198686) can0 7E0#0322128C00000000
(1700637516.202834) can0 7E8#0762128C00000394
(1700637516.289602) can0 7DF#02010CAAAAAAAAAA
(1700637516.292617) can0 7E8#04410C0CE2000000
(1700637516.380745) can0 7E0#0322128C00000000
(1700637516.382598) can0 7E8#0762128C00000516
(1700637516.471679) can0 7DF#02010CAAAAAAAAAA
(1700637516.482603) can0 7E8#04410C0B70000000
(1700637516.562844) can0 7E0#0322128C00000000
(1700637516.572645) can0 7E8#0762128C000007CC
(1700637516.653770) can0 7DF#02010CAAAAAAAAAA
(1700637516.662551) can0 7E8#04410C0AD6000000
(1700637516.744928) can0 7E0#0322128C00000000
(1700637516.752547) can0 7E8#0762128C0000085E
(1700637516.835864) can0 7DF#02010CAAAAAAAAAA
(1700637516.842585) can0 7E8#04410C0AB2000000
(1700637516.927025) can0 7E0#0322128C00000000
(1700637516.932560) can0 7E8#0762128C000008BC
(1700637517.017947) can0 7DF#02010CAAAAAAAAAA
(1700637517.022577) can0 7E8#04410C0ABA000000
(1700637517.109101) can0 7E0#0322128C00000000
(1700637517.112705) can0 7E8#0762128C000008A6
(1700637517.200015) can0 7DF#02010CAAAAAAAAAA
(1700637517.202603) can0 7E8#04410C0AB6000000
(1700637517.291165) can0 7E0#0322128C00000000
(1700637517.292598) can0 7E8#0762128C0000085C
(1700637517.382104) can0 7DF#02010CAAAAAAAAAA
(1700637517.392613) can0 7E8#04410C0B0C000000
(1700637517.473248) can0 7E0#0322128C00000000
(1700637517.482603) can0 7E8#0762128C00000875
(1700637517.564158) can0 7DF#02010CAAAAAAAAAA
(1700637517.572684) can0 7E8#04410C0E6C000000
(1700637517.655357) can0 7E0#0322128C00000000
(1700637517.662552) can0 7E8#0762128C00000532
(1700637517.746269) can0 7DF#02010CAAAAAAAAAA
(1700637517.752557) can0 7E8#04410C0E6C000000
(1700637517.837478) can0 7E0#0322128C00000000
(1700637517.842601) can0 7E8#0762128C00000468
(1700637517.928392) can0 7DF#02010CAAAAAAAAAA
(1700637517.932557) can0 7E8#04410C127C000000
(1700637518.019544) can0 7E0#0322128C00000000
(1700637518.022583) can0 7E8#0762128C000003F5
(1700637518.110476) can0 7DF#02010CAAAAAAAAAA
(1700637518.112704) can0 7E8#04410C1082000000
(1700637518.201607) can0 7E0#0322128C00000000
(1700637518.212614) can0 7E8#0762128C0000041B
(1700637518.292540) can0 7DF#02010CAAAAAAAAAA
(1700637518.302576) can0 7E8#04410C0F3A000000
(1700637518.383668) can0 7E0#0322128C00000000
(1700637518.392619) can0 7E8#0762128C00000407
(1700637518.474577) can0 7DF#02010CAAAAAAAAAA
(1700637518.482609) can0 7E8#04410C0F10000000
(1700637518.565739) can0 7E0#0322128C00000000
(1700637518.572623) can0 7E8#0762128C00000474
(1700637518.656651) can0 7DF#02010CAAAAAAAAAA
(1700637518.662573) can0 7E8#04410C0DA4000000
(1700637518.747828) can0 7E0#0322128C00000000
(1700637518.752557) can0 7E8#0762128C0000052E
(1700637518.838728) can0 7DF#02010CAAAAAAAAAA
(1700637518.842612) can0 7E8#04410C0C7E000000
(1700637518.929874) can0 7E0#0322128C00000000
(1700637518.932576) can0 7E8#0762128C00000625
(1700637519.020782) can0 7DF#02010CAAAAAAAAAA
(1700637519.022607) can0 7E8#04410C0BE0000000
(1700637519.111957) can0 7E0#0322128C00000000
(1700637519.122730) can0 7E8#0762128C000006FF
(1700637519.202893) can0 7DF#02010CAAAAAAAAAA
(1700637519.212604) can0 7E8#04410C0B66000000
(1700637519.294045) can0 7E0#0322128C00000000
(1700637519.302603) can0 7E8#0762128C00000774
(1700637519.384978) can0 7DF#02010CAAAAAAAAAA
(1700637519.392639) can0 7E8#04410C0B22000000
(1700637519.476149) can0 7E0#0322128C00000000
(1700637519.482626) can0 7E8#0762128C000006EE
(1700637519.567077) can0 7DF#02010CAAAAAAAAAA
(1700637519.572131) can0 7E8#04410C0AF0000000
(1700637519.658233) can0 7E0#0322128C00000000
(1700637519.662760) can0 7E8#0762128C000007B2
(1700637519.749122) can0 7DF#02010CAAAAAAAAAA
(1700637519.752099) can0 7E8#04410C0AF0000000
(1700637519.840276) can0 7E0#0322128C00000000
(1700637519.842619) can0 7E8#0762128C000007CC
(1700637519.931231) can0 7DF#02010CAAAAAAAAAA
(1700637519.932655) can0 7E8#04410C0AB2000000
(1700637520.022415) can0 7E0#0322128C00000000
(1700637520.032578) can0 7E8#0762128C000007BE
(1700637520.113350) can0 7DF#02010CAAAAAAAAAA
(1700637520.122612) can0 7E8#04410C0ADE000000
(1700637520.204501) can0 7E0#0322128C00000000
(1700637520.212583) can0 7E8#0762128C00000799
(1700637520.295419) can0 7DF#02010CAAAAAAAAAA
(1700637520.302040) can0 7E8#04410C0AF2000000
(1700637520.386555) can0 7E0#0322128C00000000
(1700637520.392112) can0 7E8#0762128C00000743
(1700637520.477494) can0 7DF#02010CAAAAAAAAAA
(1700637520.482029) can0 7E8#04410C0AC6000000
(1700637520.568600) can0 7E0#0322128C00000000
(1700637520.572662) can0 7E8#0762128C0000071C
(1700637520.659559) can0 7DF#02010CAAAAAAAAAA
(1700637520.662012) can0 7E8#04410C0AEE000000
(1700637520.750712) can0 7E0#0322128C00000000
(1700637520.752075) can0 7E8#0762128C000006C8
(1700637520.841606) can0 7DF#02010CAAAAAAAAAA
(1700637520.852008) can0 7E8#04410C0AEE000000
(1700637520.932751) can0 7E0#0322128C00000000
(1700637520.942671) can0 7E8#0762128C00000674
(1700637521.023712) can0 7DF#02010CAAAAAAAAAA
(1700637521.031997) can0 7E8#04410C0AFA000000
(1700637521.114884) can0 7E0#0322128C00000000
(1700637521.122101) can0 7E8#0762128C0000067C
(1700637521.205748) can0 7DF#02010CAAAAAAAAAA
(1700637521.211994) can0 7E8#04410C0B0E000000
(1700637521.296915) can0 7E0#0322128C00000000
(1700637521.302048) can0 7E8#0762128C00000649
(1700637521.387851) can0 7DF#02010CAAAAAAAAAA
(1700637521.392000) can0 7E8#04410C0B0A000000
(1700637521.479007) can0 7E0#0322128C00000000
(1700637521.482038) can0 7E8#0762128C00000630
(1700637521.569953) can0 7DF#02010CAAAAAAAAAA
(1700637521.572145) can0 7E8#04410C0AFA000000
(1700637521.661105) can0 7E0#0322128C00000000
(1700637521.672030) can0 7E8#0762128C0000061F
(1700637521.752043) can0 7DF#02010CAAAAAAAAAA
(1700637521.762111) can0 7E8#04410C0AFA000000
(1700637521.843202) can0 7E0#0322128C00000000
(1700637521.852020) can0 7E8#0762128C00000624
(1700637521.934107) can0 7DF#02010CAAAAAAAAAA
(1700637521.941955) can0 7E8#04410C0AC8000000
(1700637522.025284) can0 7E0#0322128C00000000
(1700637522.032055) can0 7E8#0762128C0000061C
(1700637522.116202) can0 7DF#02010CAAAAAAAAAA
(1700637522.121979) can0 7E8#04410C0B16000000
(1700637522.207394) can0 7E0#0322128C00000000
(1700637522.212005) can0 7E8#0762128C0000061A
(1700637522.298268) can0 7DF#02010CAAAAAAAAAA
(1700637522.301931) can0 7E8#04410C0B18000000
(1700637522.389459) can0 7E0#0322128C00000000
(1700637522.392099) can0 7E8#0762128C00000619
(1700637522.480352) can0 7DF#02010CAAAAAAAAAA
(1700637522.491922) can0 7E8#04410C0ADC000000
(1700637522.571537) can0 7E0#0322128C00000000
(1700637522.582009) can0 7E8#0762128C0000060F
(1700637522.662478) can0 7DF#02010CAAAAAAAAAA
(1700637522.671918) can0 7E8#04410C0AFA000000
(1700637522.753606) can0 7E0#0322128C00000000
(1700637522.761979) can0 7E8#0762128C0000061C
(1700637522.844546) can0 7DF#02010CAAAAAAAAAA
(1700637522.851898) can0 7E8#04410C0B0E000000
(1700637522.935678) can0 7E0#0322128C00000000
(1700637522.942147) can0 7E8#0762128C00000616
(1700637523.026607) can0 7DF#02010CAAAAAAAAAA
(1700637523.032105) can0 7E8#04410C0B06000000
(1700637523.117751) can0 7E0#0322128C00000000
(1700637523.122641) can0 7E8#0762128C00000607
(1700637523.208652) can0 7DF#02010CAAAAAAAAAA
(1700637523.212047) can0 7E8#04410C0B22000000
(1700637523.299860) can0 7E0#0322128C00000000
(1700637523.301951) can0 7E8#0762128C000005B4
(1700637523.390760) can0 7DF#02010CAAAAAAAAAA
(1700637523.391887) can0 7E8#04410C0B1A000000
(1700637523.481935) can0 7E0#0322128C00000000
(1700637523.491931) can0 7E8#0762128C0000057A
(1700637523.572850) can0 7DF#02010CAAAAAAAAAA
(1700637523.581862) can0 7E8#04410C0AFA000000
(1700637523.664004) can0 7E0#0322128C00000000
(1700637523.671910) can0 7E8#0762128C00000551
(1700637523.754932) can0 7DF#02010CAAAAAAAAAA
(1700637523.761855) can0 7E8#04410C0AFA000000
(1700637523.846104) can0 7E0#0322128C00000000
(1700637523.851954) can0 7E8#0762128C0000053A
(1700637523.936996) can0 7DF#02010CAAAAAAAAAA
(1700637523.942729) can0 7E8#04410C0B0E000000
(1700637524.028158) can0 7E0#0322128C00000000
(1700637524.031996) can0 7E8#0762128C000005E6
(1700637524.119076) can0 7DF#02010CAAAAAAAAAA
(1700637524.121852) can0 7E8#04410C0AFE000000
(1700637524.210245) can0 7E0#0322128C00000000
(1700637524.211888) can0 7E8#0762128C000005E3
(1700637524.301181) can0 7DF#02010CAAAAAAAAAA
(1700637524.311880) can0 7E8#04410C0B0C000000
(1700637524.392350) can0 7E0#0322128C00000000
(1700637524.401882) can0 7E8#0762128C000005D6
(1700637524.483258) can0 7DF#02010CAAAAAAAAAA
(1700637524.491959) can0 7E8#04410C0B08000000
(1700637524.574427) can0 7E0#0322128C00000000
(1700637524.581871) can0 7E8#0762128C000005C9
(1700637524.665347) can0 7DF#02010CAAAAAAAAAA
(1700637524.671907) can0 7E8#04410C0AFC000000
(1700637524.756499) can0 7E0#0322128C00000000
(1700637524.761852) can0 7E8#0762128C000005CF
(1700637524.847411) can0 7DF#02010CAAAAAAAAAA
(1700637524.851920) can0 7E8#04410C0B00000000
(1700637524.938555) can0 7E0#0322128C00000000
(1700637524.941853) can0 7E8#0762128C000005CA
(1700637525.029516) can0 7DF#02010CAAAAAAAAAA
(1700637525.032034) can0 7E8#04410C0AFE000000
(1700637525.120641) can0 7E0#0322128C00000000
(1700637525.132011) can0 7E8#0762128C000005CF
(1700637525.211542) can0 7DF#02010CAAAAAAAAAA
(1700637525.221773) can0 7E8#04410C0B0E000000
(1700637525.302702) can0 7E0#0322128C00000000
(1700637525.311888) can0 7E8#0762128C000005C9
(1700637525.393641) can0 7DF#02010CAAAAAAAAAA
(1700637525.401757) can0 7E8#04410C0B0C000000
(1700637525.484786) can0 7E0#0322128C00000000
(1700637525.491908) can0 7E8#0762128C000005CA
(1700637525.575702) can0 7DF#02010CAAAAAAAAAA
(1700637525.581744) can0 7E8#04410C0B06000000
(1700637525.666854) can0 7E0#0322128C00000000
(1700637525.671917) can0 7E8#0762128C000005CC
(1700637525.757792) can0 7DF#02010CAAAAAAAAAA
(1700637525.761751) can0 7E8#04410C0B06000000
(1700637525.848961) can0 7E0#0322128C00000000
(1700637525.851983) can0 7E8#0762128C000005D1
(1700637525.939872) can0 7DF#02010CAAAAAAAAAA
(1700637525.941860) can0 7E8#04410C0B10000000
(1700637526.031024) can0 7E0#0322128C00000000
(1700637526.041783) can0 7E8#0762128C000005DD
(1700637526.121959) can0 7DF#02010CAAAAAAAAAA
(1700637526.132013) can0 7E8#04410C0B04000000
(1700637526.213090) can0 7E0#0322128C00000000
(1700637526.221776) can0 7E8#0762128C000005E5
(1700637526.304028) can0 7DF#02010CAAAAAAAAAA
(1700637526.311954) can0 7E8#04410C0B10000000
(1700637526.395204) can0 7E0#0322128C00000000
(1700637526.401769) can0 7E8#0762128C000005F0
(1700637526.486106) can0 7DF#02010CAAAAAAAAAA
(1700637526.491705) can0 7E8#04410C0B02000000
(1700637526.577276) can0 7E0#0322128C00000000
(1700637526.581749) can0 7E8#0762128C000005E9
(1700637526.668200) can0 7DF#02010CAAAAAAAAAA
(1700637526.671703) can0 7E8#04410C0B30000000
(1700637526.759418) can0 7E0#0322128C00000000
(1700637526.761740) can0 7E8#0762128C000005E2
(1700637526.850356) can0 7DF#02010CAAAAAAAAAA
(1700637526.851671) can0 7E8#04410C0B22000000
(1700637526.941479) can0 7E0#0322128C00000000
(1700637526.951736) can0 7E8#0762128C000005DE
(1700637527.032396) can0 7DF#02010CAAAAAAAAAA
(1700637527.041700) can0 7E8#04410C0B12000000
(1700637527.123557) can0 7E0#0322128C00000000
(1700637527.131732) can0 7E8#0762128C000005DB
(1700637527.214481) can0 7DF#02010CAAAAAAAAAA
(1700637527.221647) can0 7E8#04410C0B04000000
(1700637527.305607) can0 7E0#0322128C00000000
(1700637527.311927) can0 7E8#0762128C000005E2
(1700637527.396538) can0 7DF#02010CAAAAAAAAAA
(1700637527.401805) can0 7E8#04410C0B16000000
(1700637527.487678) can0 7E0#0322128C00000000
(1700637527.491709) can0 7E8#0762128C000005D6
(1700637527.578606) can0 7DF#02010CAAAAAAAAAA
(1700637527.581659) can0 7E8#04410C0B10000000
(1700637527.669735) can0 7E0#0322128C00000000
(1700637527.671698) can0 7E8#0762128C000005DD
(1700637527.760678) can0 7DF#02010CAAAAAAAAAA
(1700637527.761636) can0 7E8#04410C0B10000000
(1700637527.851830) can0 7E0#0322128C00000000
(1700637527.861677) can0 7E8#0762128C000005CD
(1700637527.942746) can0 7DF#02010CAAAAAAAAAA
(1700637527.951979) can0 7E8#04410C0B14000000
(1700637528.033896) can0 7E0#0322128C00000000
(1700637528.041959) can0 7E8#0762128C000005D1
(1700637528.124831) can0 7DF#02010CAAAAAAAAAA
(1700637528.131602) can0 7E8#04410C0B14000000
(1700637528.215980) can0 7E0#0322128C00000000
(1700637528.221711) can0 7E8#0762128C000005D0
(1700637528.306934) can0 7DF#02010CAAAAAAAAAA
(1700637528.311980) can0 7E8#04410C0B04000000
(1700637528.398098) can0 7E0#0322128C00000000
(1700637528.401676) can0 7E8#0762128C000005D5
(1700637528.489012) can0 7DF#02010CAAAAAAAAAA
(1700637528.491599) can0 7E8#04410C0B04000000
(1700637528.580146) can0 7E0#0322128C00000000
(1700637528.581701) can0 7E8#0762128C000005E5
(1700637528.671101) can0 7DF#02010CAAAAAAAAAA
(1700637528.681579) can0 7E8#04410C0AE6000000
(1700637528.762235) can0 7E0#0322128C00000000
(1700637528.771629) can0 7E8#0762128C000005DD
(1700637528.853150) can0 7DF#02010CAAAAAAAAAA
(1700637528.861578) can0 7E8#04410C0AEE000000
(1700637528.944354) can0 7E0#0322128C00000000
(1700637528.951627) can0 7E8#0762128C000005EB
(1700637529.035245) can0 7DF#02010CAAAAAAAAAA
(1700637529.041553) can0 7E8#04410C0AE2000000
(1700637529.126452) can0 7E0#0322128C00000000
(1700637529.131621) can0 7E8#0762128C000005F3
(1700637529.217337) can0 7DF#02010CAAAAAAAAAA
(1700637529.221563) can0 7E8#04410C0AE8000000
(1700637529.308522) can0 7E0#0322128C00000000
(1700637529.311602) can0 7E8#0762128C000005E5
(1700637529.399419) can0 7DF#02010CAAAAAAAAAA
(1700637529.401558) can0 7E8#04410C0ADC000000
(1700637529.490558) can0 7E0#0322128C00000000
(1700637529.491995) can0 7E8#0762128C000005F8
(1700637529.581511) can0 7DF#02010CAAAAAAAAAA
(1700637529.591554) can0 7E8#04410C0AEA000000
(1700637529.672620) can0 7E0#0322128C00000000
(1700637529.681602) can0 7E8#0762128C000005EE
(1700637529.763557) can0 7DF#02010CAAAAAAAAAA
(1700637529.771536) can0 7E8#04410C0B08000000
(1700637529.854714) can0 7E0#0322128C00000000
(1700637529.861581) can0 7E8#0762128C000005EE
(1700637529.945655) can0 7DF#02010CAAAAAAAAAA
(1700637529.951557) can0 7E8#04410C0B08000000
(1700637530.036823) can0 7E0#0322128C00000000
(1700637530.041573) can0 7E8#0762128C000005EC
(1700637530.127722) can0 7DF#02010CAAAAAAAAAA
(1700637530.131538) can0 7E8#04410C0AFA000000
(1700637530.218876) can0 7E0#0322128C00000000
(1700637530.221741) can0 7E8#0762128C000005EE
(1700637530.309794) can0 7DF#02010CAAAAAAAAAA
(1700637530.311500) can0 7E8#04410C0AF4000000
(1700637530.400959) can0 7E0#0322128C00000000
(1700637530.411559) can0 7E8#0762128C000005FE
(1700637530.491877) can0 7DF#02010CAAAAAAAAAA
(1700637530.501505) can0 7E8#04410C0AF6000000
(1700637530.583022) can0 7E0#0322128C00000000
(1700637530.591580) can0 7E8#0762128C000005FC
(1700637530.673978) can0 7DF#02010CAAAAAAAAAA
(1700637530.681489) can0 7E8#04410C0AF6000000
(1700637530.765127) can0 7E0#0322128C00000000
(1700637530.771604) can0 7E8#0762128C0000060E
(1700637530.856039) can0 7DF#02010CAAAAAAAAAA
(1700637530.861651) can0 7E8#04410C0AF4000000
(1700637530.947208) can0 7E0#0322128C00000000
(1700637530.951558) can0 7E8#0762128C00000609
(1700637531.038097) can0 7DF#02010CAAAAAAAAAA
(1700637531.041647) can0 7E8#04410C0AFA000000
(1700637531.129241) can0 7E0#0322128C00000000
(1700637531.131532) can0 7E8#0762128C0000060F
(1700637531.220182) can0 7DF#02010CAAAAAAAAAA
(1700637531.221481) can0 7E8#04410C0B10000000
(1700637531.311351) can0 7E0#0322128C00000000
(1700637531.321528) can0 7E8#0762128C00000600
(1700637531.402235) can0 7DF#02010CAAAAAAAAAA
(1700637531.411459) can0 7E8#04410C0B04000000
(1700637531.493457) can0 7E0#0322128C00000000
(1700637531.501616) can0 7E8#0762128C00000613
(1700637531.584351) can0 7DF#02010CAAAAAAAAAA
(1700637531.591453) can0 7E8#04410C0AFE000000
(1700637531.675507) can0 7E0#0322128C00000000
(1700637531.681498) can0 7E8#0762128C00000623
(1700637531.766419) can0 7DF#02010CAAAAAAAAAA
(1700637531.771526) can0 7E8#04410C0AFC000000
(1700637531.857555) can0 7E0#0322128C00000000
(1700637531.861850) can0 7E8#0762128C00000610
(1700637531.948490) can0 7DF#02010CAAAAAAAAAA
(1700637531.951427) can0 7E8#04410C0AFC000000
(1700637532.039608) can0 7E0#0322128C00000000
(1700637532.041476) can0 7E8#0762128C00000609
(1700637532.130553) can0 7DF#02010CAAAAAAAAAA
(1700637532.141407) can0 7E8#04410C0B1A000000
(1700637532.221711) can0 7E0#0322128C00000000
(1700637532.231481) can0 7E8#0762128C000005F9
(1700637532.321398) can0 7E8#04410C0B28000000
(1700637532.403768) can0 7E0#0322128C00000000
(1700637532.411499) can0 7E8#0762128C00000604
(1700637532.494674) can0 7DF#02010CAAAAAAAAAA
(1700637532.501392) can0 7E8#04410C0B10000000
(1700637532.585828) can0 7E0#0322128C00000000
(1700637532.591453) can0 7E8#0762128C000005FB
(1700637532.676730) can0 7DF#02010CAAAAAAAAAA
(1700637532.681455) can0 7E8#04410C0B10000000
(1700637532.767881) can0 7E0#0322128C00000000
(1700637532.771483) can0 7E8#0762128C00000603
(1700637532.858827) can0 7DF#02010CAAAAAAAAAA
(1700637532.861518) can0 7E8#04410C0AFE000000
(1700637532.949977) can0 7E0#0322128C00000000
(1700637532.951448) can0 7E8#0762128C000005FB
(1700637533.040885) can0 7DF#02010CAAAAAAAAAA
(1700637533.051355) can0 7E8#04410C0AF6000000
(1700637533.132047) can0 7E0#0322128C00000000
(1700637533.141424) can0 7E8#0762128C00000601
(1700637533.222969) can0 7DF#02010CAAAAAAAAAA
(1700637533.231358) can0 7E8#04410C0B16000000
(1700637533.314117) can0 7E0#0322128C00000000
(1700637533.321424) can0 7E8#0762128C00000600
(1700637533.405012) can0 7DF#02010CAAAAAAAAAA
(1700637533.411529) can0 7E8#04410C0B1C000000
(1700637533.496170) can0 7E0#0322128C00000000
(1700637533.501403) can0 7E8#0762128C00000604
(1700637533.587081) can0 7DF#02010CAAAAAAAAAA
(1700637533.591351) can0 7E8#04410C0B34000000
(1700637533.678244) can0 7E0#0322128C00000000
(1700637533.681762) can0 7E8#0762128C000005FF
(1700637533.769155) can0 7DF#02010CAAAAAAAAAA
(1700637533.771348) can0 7E8#04410C0B44000000
(1700637533.860357) can0 7E0#0322128C00000000
(1700637533.861402) can0 7E8#0762128C00000608
(1700637533.951234) can0 7DF#02010CAAAAAAAAAA
(1700637533.961279) can0 7E8#04410C0B44000000
(1700637534.042415) can0 7E0#0322128C00000000
(1700637534.051352) can0 7E8#0762128C00000600
(1700637534.133353) can0 7DF#02010CAAAAAAAAAA
(1700637534.141272) can0 7E8#04410C0B48000000
(1700637534.224480) can0 7E0#0322128C00000000
(1700637534.231355) can0 7E8#0762128C000005EC
(1700637534.315399) can0 7DF#02010CAAAAAAAAAA
(1700637534.321254) can0 7E8#04410C0B1E000000
(1700637534.406557) can0 7E0#0322128C00000000
(1700637534.411500) can0 7E8#0762128C000005F3
(1700637534.497510) can0 7DF#02010CAAAAAAAAAA
(1700637534.501243) can0 7E8#04410C0B16000000
(1700637534.588632) can0 7E0#0322128C00000000
(1700637534.591350) can0 7E8#0762128C000005ED
(1700637534.679579) can0 7DF#02010CAAAAAAAAAA
(1700637534.681262) can0 7E8#04410C0B2E000000
(1700637534.770725) can0 7E0#0322128C00000000
(1700637534.781357) can0 7E8#0762128C000005F1
(1700637534.861648) can0 7DF#02010CAAAAAAAAAA
(1700637534.871225) can0 7E8#04410C0B14000000
(1700637534.952787) can0 7E0#0322128C00000000
(1700637534.961522) can0 7E8#0762128C000005EE
(1700637535.043734) can0 7DF#02010CAAAAAAAAAA
(1700637535.051678) can0 7E8#04410C0B06000000
(1700637535.134871) can0 7E0#0322128C00000000
(1700637535.141277) can0 7E8#0762128C000005F8
(1700637535.225784) can0 7DF#02010CAAAAAAAAAA
(1700637535.231233) can0 7E8#04410C0B16000000
(1700637535.316959) can0 7E0#0322128C00000000
(1700637535.321273) can0 7E8#0762128C000005F3
(1700637535.407862) can0 7DF#02010CAAAAAAAAAA
(1700637535.411212) can0 7E8#04410C0B20000000
(1700637535.499025) can0 7E0#0322128C00000000
(1700637535.501273) can0 7E8#0762128C000005F4
(1700637535.589929) can0 7DF#02010CAAAAAAAAAA
(1700637535.591203) can0 7E8#04410C0B14000000
(1700637535.681104) can0 7E0#0322128C00000000
(1700637535.691242) can0 7E8#0762128C000005F2
(1700637535.771975) can0 7DF#02010CAAAAAAAAAA
(1700637535.781179) can0 7E8#04410C0B2C000000
(1700637535.863144) can0 7E0#0322128C00000000
(1700637535.871225) can0 7E8#0762128C000005F3
(1700637535.954082) can0 7DF#02010CAAAAAAAAAA
(1700637535.961172) can0 7E8#04410C0B2C000000
(1700637536.045234) can0 7E0#0322128C00000000
(1700637536.051230) can0 7E8#0762128C000005EE
(1700637536.136170) can0 7DF#02010CAAAAAAAAAA
(1700637536.141153) can0 7E8#04410C0B22000000
(1700637536.227335) can0 7E0#0322128C00000000
(1700637536.231486) can0 7E8#0762128C000005F6
(1700637536.318255) can0 7DF#02010CAAAAAAAAAA
(1700637536.321532) can0 7E8#04410C0B0E000000
(1700637536.409453) can0 7E0#0322128C00000000
(1700637536.411208) can0 7E8#0762128C000005EB
(1700637536.500353) can0 7DF#02010CAAAAAAAAAA
(1700637536.511154) can0 7E8#04410C0B32000000
(1700637536.591508) can0 7E0#0322128C00000000
(1700637536.601184) can0 7E8#0762128C000005EE
(1700637536.682408) can0 7DF#02010CAAAAAAAAAA
(1700637536.691127) can0 7E8#04410C0B3A000000
(1700637536.773540) can0 7E0#0322128C00000000
(1700637536.781220) can0 7E8#0762128C000005FB
(1700637536.864526) can0 7DF#02010CAAAAAAAAAA
(1700637536.871119) can0 7E8#04410C0B34000000
(1700637536.955650) can0 7E0#0322128C00000000
(1700637536.961182) can0 7E8#0762128C000005F9
(1700637537.046566) can0 7DF#02010CAAAAAAAAAA
(1700637537.051118) can0 7E8#04410C0B10000000
(1700637537.137715) can0 7E0#0322128C00000000
(1700637537.141170) can0 7E8#0762128C00000601
(1700637537.228604) can0 7DF#02010CAAAAAAAAAA
(1700637537.231103) can0 7E8#04410C0B08000000
(1700637537.319804) can0 7E0#0322128C00000000
(1700637537.321162) can0 7E8#0762128C000005FC
(1700637537.410728) can0 7DF#02010CAAAAAAAAAA
(1700637537.421083) can0 7E8#04410C0B26000000
(1700637537.501867) can0 7E0#0322128C00000000
(1700637537.511146) can0 7E8#0762128C000005EC
(1700637537.592806) can0 7DF#02010CAAAAAAAAAA
(1700637537.601084) can0 7E8#04410C0B36000000
(1700637537.683958) can0 7E0#0322128C00000000
(1700637537.691133) can0 7E8#0762128C000005E6
(1700637537.774890) can0 7DF#02010CAAAAAAAAAA
(1700637537.781083) can0 7E8#04410C0B00000000
(1700637537.866061) can0 7E0#0322128C00000000
(1700637537.871126) can0 7E8#0762128C000005E3
(1700637537.956980) can0 7DF#02010CAAAAAAAAAA
(1700637537.961266) can0 7E8#04410C0B00000000
(1700637538.048136) can0 7E0#0322128C00000000
(1700637538.051102) can0 7E8#0762128C000005D7
(1700637538.139039) can0 7DF#02010CAAAAAAAAAA
(1700637538.141043) can0 7E8#04410C0B16000000
(1700637538.230209) can0 7E0#0322128C00000000
(1700637538.241108) can0 7E8#0762128C000005D4
(1700637538.321123) can0 7DF#02010CAAAAAAAAAA
(1700637538.331051) can0 7E8#04410C0B14000000
(1700637538.412353) can0 7E0#0322128C00000000
(1700637538.421353) can0 7E8#0762128C000005D8
(1700637538.503235) can0 7DF#02010CAAAAAAAAAA
(1700637538.511241) can0 7E8#04410C0B08000000
(1700637538.594427) can0 7E0#0322128C00000000
(1700637538.601397) can0 7E8#0762128C000005DC
(1700637538.685353) can0 7DF#02010CAAAAAAAAAA
(1700637538.691013) can0 7E8#04410C0B1E000000
(1700637538.776508) can0 7E0#0322128C00000000
(1700637538.781084) can0 7E8#0762128C000005D8
(1700637538.867431) can0 7DF#02010CAAAAAAAAAA
(1700637538.871002) can0 7E8#04410C0B16000000
(1700637538.958556) can0 7E0#0322128C00000000
(1700637538.961082) can0 7E8#0762128C000005D1
(1700637539.049498) can0 7DF#02010CAAAAAAAAAA
(1700637539.050989) can0 7E8#04410C0B0E000000
(1700637539.140627) can0 7E0#0322128C00000000
(1700637539.151031) can0 7E8#0762128C000005CF
(1700637539.231580) can0 7DF#02010CAAAAAAAAAA
(1700637539.241004) can0 7E8#04410C0AFA000000
(1700637539.322730) can0 7E0#0322128C00000000
(1700637539.331051) can0 7E8#0762128C000005D1
(1700637539.413646) can0 7DF#02010CAAAAAAAAAA
(1700637539.420984) can0 7E8#04410C0B0E000000
(1700637539.504801) can0 7E0#0322128C00000000
(1700637539.511024) can0 7E8#0762128C000005CE
(1700637539.595727) can0 7DF#02010CAAAAAAAAAA
(1700637539.600962) can0 7E8#04410C0B1E000000
(1700637539.686873) can0 7E0#0322128C00000000
(1700637539.691022) can0 7E8#0762128C000005CE
(1700637539.777806) can0 7DF#02010CAAAAAAAAAA
(1700637539.781181) can0 7E8#04410C0B16000000
(1700637539.868965) can0 7E0#0322128C00000000
(1700637539.871007) can0 7E8#0762128C000005C9
(1700637539.959883) can0 7DF#02010CAAAAAAAAAA
(1700637539.971357) can0 7E8#04410C0B0C000000
(1700637540.051048) can0 7E0#0322128C00000000
(1700637540.060994) can0 7E8#0762128C000005D4
(1700637540.141978) can0 7DF#02010CAAAAAAAAAA
(1700637540.150937) can0 7E8#04410C0B0C000000
(1700637540.233151) can0 7E0#0322128C00000000
(1700637540.240985) can0 7E8#0762128C000005E4
(1700637540.324079) can0 7DF#02010CAAAAAAAAAA
(1700637540.331208) can0 7E8#04410C0B14000000
(1700637540.415244) can0 7E0#0322128C00000000
(1700637540.420981) can0 7E8#0762128C000005EA
(1700637540.506151) can0 7DF#02010CAAAAAAAAAA
(1700637540.510911) can0 7E8#04410C0B28000000
(1700637540.597353) can0 7E0#0322128C00000000
(1700637540.601171) can0 7E8#0762128C000005D2
(1700637540.688203) can0 7DF#02010CAAAAAAAAAA
(1700637540.690902) can0 7E8#04410C0B68000000
(1700637540.779394) can0 7E0#0322128C00000000
(1700637540.780962) can0 7E8#0762128C000005CB
(1700637540.870356) can0 7DF#02010CAAAAAAAAAA
(1700637540.880980) can0 7E8#04410C0B3A000000
(1700637540.961494) can0 7E0#0322128C00000000
(1700637540.970958) can0 7E8#0762128C000005CC
(1700637541.052406) can0 7DF#02010CAAAAAAAAAA
(1700637541.060885) can0 7E8#04410C0B4A000000
(1700637541.143560) can0 7E0#0322128C00000000
(1700637541.150917) can0 7E8#0762128C000005C0
(1700637541.234483) can0 7DF#02010CAAAAAAAAAA
(1700637541.240882) can0 7E8#04410C0B3C000000
(1700637541.325603) can0 7E0#0322128C00000000
(1700637541.331023) can0 7E8#0762128C000005C1
(1700637541.416529) can0 7DF#02010CAAAAAAAAAA
(1700637541.421107) can0 7E8#04410C0B36000000
(1700637541.507656) can0 7E0#0322128C00000000
(1700637541.510913) can0 7E8#0762128C000005BC
(1700637541.598579) can0 7DF#02010CAAAAAAAAAA
(1700637541.600856) can0 7E8#04410C0B32000000
(1700637541.689734) can0 7E0#0322128C00000000
(1700637541.690920) can0 7E8#0762128C000005B1
(1700637541.780651) can0 7DF#02010CAAAAAAAAAA
(1700637541.791011) can0 7E8#04410C0B3C000000
(1700637541.871818) can0 7E0#0322128C00000000
(1700637541.881177) can0 7E8#0762128C000005AE
(1700637541.962742) can0 7DF#02010CAAAAAAAAAA
(1700637541.970855) can0 7E8#04410C0B4E000000
(1700637542.053907) can0 7E0#0322128C00000000
(1700637542.061278) can0 7E8#0762128C000005A7
(1700637542.144797) can0 7DF#02010CAAAAAAAAAA
(1700637542.150813) can0 7E8#04410C0B4E000000
(1700637542.235965) can0 7E0#0322128C00000000
(1700637542.240884) can0 7E8#0762128C000005AD
(1700637542.326878) can0 7DF#02010CAAAAAAAAAA
(1700637542.331010) can0 7E8#04410C0B3A000000
(1700637542.418046) can0 7E0#0322128C00000000
(1700637542.420885) can0 7E8#0762128C000005AE
(1700637542.508985) can0 7DF#02010CAAAAAAAAAA
(1700637542.510795) can0 7E8#04410C0B24000000
(1700637542.600153) can0 7E0#0322128C00000000
(1700637542.610857) can0 7E8#0762128C000005B0
(1700637542.691078) can0 7DF#02010CAAAAAAAAAA
(1700637542.700792) can0 7E8#04410C0B22000000
(1700637542.782260) can0 7E0#0322128C00000000
(1700637542.790856) can0 7E8#0762128C000005B1
(1700637542.873162) can0 7DF#02010CAAAAAAAAAA
(1700637542.880887) can0 7E8#04410C0B32000000
(1700637542.964358) can0 7E0#0322128C00000000
(1700637542.971062) can0 7E8#0762128C000005AD
(1700637543.055248) can0 7DF#02010CAAAAAAAAAA
(1700637543.060773) can0 7E8#04410C0B20000000
(1700637543.146452) can0 7E0#0322128C00000000
(1700637543.150812) can0 7E8#0762128C000005AD
(1700637543.237359) can0 7DF#02010CAAAAAAAAAA
(1700637543.240756) can0 7E8#04410C0B34000000
(1700637543.328535) can0 7E0#0322128C00000000
(1700637543.330826) can0 7E8#0762128C0000059D
(1700637543.419452) can0 7DF#02010CAAAAAAAAAA
(1700637543.420747) can0 7E8#04410C0B06000000
(1700637543.510609) can0 7E0#0322128C00000000
(1700637543.520987) can0 7E8#0762128C000005A8
(1700637543.601542) can0 7DF#02010CAAAAAAAAAA
(1700637543.610739) can0 7E8#04410C0B1A000000
(1700637543.692666) can0 7E0#0322128C00000000
(1700637543.700784) can0 7E8#0762128C000005A1
(1700637543.783576) can0 7DF#02010CAAAAAAAAAA
(1700637543.790726) can0 7E8#04410C0B0E000000
(1700637543.874721) can0 7E0#0322128C00000000
(1700637543.880769) can0 7E8#0762128C000005A5
(1700637543.965650) can0 7DF#02010CAAAAAAAAAA
(1700637543.970729) can0 7E8#04410C0B1E000000
(1700637544.056834) can0 7E0#0322128C00000000
(1700637544.060796) can0 7E8#0762128C000005A1
(1700637544.147729) can0 7DF#02010CAAAAAAAAAA
(1700637544.150684) can0 7E8#04410C0B1E000000
(1700637544.238889) can0 7E0#0322128C00000000
(1700637544.250764) can0 7E8#0762128C000005A4
(1700637544.329857) can0 7DF#02010CAAAAAAAAAA
(1700637544.340707) can0 7E8#04410C0B14000000
(1700637544.420996) can0 7E0#0322128C00000000
(1700637544.430749) can0 7E8#0762128C000005AA
(1700637544.511915) can0 7DF#02010CAAAAAAAAAA
(1700637544.520689) can0 7E8#04410C0AFA000000
(1700637544.603077) can0 7E0#0322128C00000000
(1700637544.610767) can0 7E8#0762128C000005AE
(1700637544.693985) can0 7DF#02010CAAAAAAAAAA
(1700637544.700671) can0 7E8#04410C0B08000000
(1700637544.785127) can0 7E0#0322128C00000000
(1700637544.790728) can0 7E8#0762128C000005AA
(1700637544.876049) can0 7DF#02010CAAAAAAAAAA
(1700637544.880662) can0 7E8#04410C0B10000000
(1700637544.967230) can0 7E0#0322128C00000000
(1700637544.971102) can0 7E8#0762128C000005A8
(1700637545.058155) can0 7DF#02010CAAAAAAAAAA
(1700637545.060649) can0 7E8#04410C0B2A000000
(1700637545.149349) can0 7E0#0322128C00000000
(1700637545.150708) can0 7E8#0762128C000005A0
(1700637545.240260) can0 7DF#02010CAAAAAAAAAA
(1700637545.250650) can0 7E8#04410C0B34000000
(1700637545.331459) can0 7E0#0322128C00000000
(1700637545.340704) can0 7E8#0762128C000005A9
(1700637545.422352) can0 7DF#02010CAAAAAAAAAA
(1700637545.430631) can0 7E8#04410C0B36000000
(1700637545.513532) can0 7E0#0322128C00000000
(1700637545.520704) can0 7E8#0762128C000005A5
(1700637545.604459) can0 7DF#02010CAAAAAAAAAA
(1700637545.610653) can0 7E8#04410C0B1E000000
(1700637545.695607) can0 7E0#0322128C00000000
(1700637545.700678) can0 7E8#0762128C000005AD
(1700637545.786527) can0 7DF#02010CAAAAAAAAAA
(1700637545.790612) can0 7E8#04410C0B20000000
(1700637545.877648) can0 7E0#0322128C00000000
(1700637545.881037) can0 7E8#0762128C00000607
(1700637545.968577) can0 7DF#02010CAAAAAAAAAA
(1700637545.970649) can0 7E8#04410C0B54000000
(1700637546.059726) can0 7E0#0322128C00000000
(1700637546.070669) can0 7E8#0762128C00000F85
(1700637546.150629) can0 7DF#02010CAAAAAAAAAA
(1700637546.160594) can0 7E8#04410C0B54000000
(1700637546.241850) can0 7E0#0322128C00000000
(1700637546.250649) can0 7E8#0762128C00001303
(1700637546.332763) can0 7DF#02010CAAAAAAAAAA
(1700637546.340623) can0 7E8#04410C0EA4000000
(1700637546.423992) can0 7E0#0322128C00000000
(1700637546.430631) can0 7E8#0762128C000010E9
(1700637546.514924) can0 7DF#02010CAAAAAAAAAA
(1700637546.520620) can0 7E8#04410C1B44000000
(1700637546.606120) can0 7E0#0322128C00000000
(1700637546.610628) can0 7E8#0762128C00001101
(1700637546.697043) can0 7DF#02010CAAAAAAAAAA
(1700637546.700626) can0 7E8#04410C1F36000000
(1700637546.788247) can0 7E0#0322128C00000000
(1700637546.790618) can0 7E8#0762128C00001121
(1700637546.879200) can0 7DF#02010CAAAAAAAAAA
(1700637546.880665) can0 7E8#04410C1B5C000000
(1700637546.970458) can0 7E0#0322128C00000000
(1700637546.980609) can0 7E8#0762128C00000B74
(1700637547.061357) can0 7DF#02010CAAAAAAAAAA
(1700637547.070555) can0 7E8#04410C16B4000000
(1700637547.152541) can0 7E0#0322128C00000000
(1700637547.160687) can0 7E8#0762128C00000BCE
(1700637547.243481) can0 7DF#02010CAAAAAAAAAA
(1700637547.250562) can0 7E8#04410C1614000000
(1700637547.334632) can0 7E0#0322128C00000000
(1700637547.340622) can0 7E8#0762128C00000B25
(1700637547.425553) can0 7DF#02010CAAAAAAAAAA
(1700637547.430556) can0 7E8#04410C15A2000000
(1700637547.516733) can0 7E0#0322128C00000000
(1700637547.520765) can0 7E8#0762128C00000AA7
(1700637547.607639) can0 7DF#02010CAAAAAAAAAA
(1700637547.610544) can0 7E8#04410C1496000000
(1700637547.698826) can0 7E0#0322128C00000000
(1700637547.700656) can0 7E8#0762128C00000A6D
(1700637547.789738) can0 7DF#02010CAAAAAAAAAA
(1700637547.800642) can0 7E8#04410C143E000000
(1700637547.880951) can0 7E0#0322128C00000000
(1700637547.890552) can0 7E8#0762128C000009DB
(1700637547.971882) can0 7DF#02010CAAAAAAAAAA
(1700637547.980515) can0 7E8#04410C16B4000000
(1700637548.063079) can0 7E0#0322128C00000000
(1700637548.070556) can0 7E8#0762128C00000953
(1700637548.153963) can0 7DF#02010CAAAAAAAAAA
(1700637548.160501) can0 7E8#04410C16B4000000
(1700637548.245149) can0 7E0#0322128C00000000
(1700637548.250555) can0 7E8#0762128C0000086D
(1700637548.336076) can0 7DF#02010CAAAAAAAAAA
(1700637548.340508) can0 7E8#04410C1830000000
(1700637548.427227) can0 7E0#0322128C00000000
(1700637548.430730) can0 7E8#0762128C00000821
(1700637548.518146) can0 7DF#02010CAAAAAAAAAA
(1700637548.520701) can0 7E8#04410C193C000000
(1700637548.609356) can0 7E0#0322128C00000000
(1700637548.610553) can0 7E8#0762128C00000975
(1700637548.700228) can0 7DF#02010CAAAAAAAAAA
(1700637548.710828) can0 7E8#04410C1B42000000
(1700637548.791451) can0 7E0#0322128C00000000
(1700637548.800622) can0 7E8#0762128C00000D17
(1700637548.882349) can0 7DF#02010CAAAAAAAAAA
(1700637548.890479) can0 7E8#04410C1DF8000000
(1700637548.973557) can0 7E0#0322128C00000000
(1700637548.980524) can0 7E8#0762128C0000091F
(1700637549.064480) can0 7DF#02010CAAAAAAAAAA
(1700637549.070479) can0 7E8#04410C1FE6000000
(1700637549.155596) can0 7E0#0322128C00000000
(1700637549.160500) can0 7E8#0762128C00000499
(1700637549.246559) can0 7DF#02010CAAAAAAAAAA
(1700637549.250458) can0 7E8#04410C1E64000000
(1700637549.337706) can0 7E0#0322128C00000000
(1700637549.340502) can0 7E8#0762128C00000404
(1700637549.428621) can0 7DF#02010CAAAAAAAAAA
(1700637549.430449) can0 7E8#04410C1CA8000000
(1700637549.519797) can0 7E0#0322128C00000000
(1700637549.530862) can0 7E8#0762128C000003A4
(1700637549.610725) can0 7DF#02010CAAAAAAAAAA
(1700637549.620824) can0 7E8#04410C1A64000000
(1700637549.701873) can0 7E0#0322128C00000000
(1700637549.710487) can0 7E8#0762128C00000356
(1700637549.792795) can0 7DF#02010CAAAAAAAAAA
(1700637549.800417) can0 7E8#04410C17C6000000
(1700637549.883951) can0 7E0#0322128C00000000
(1700637549.890477) can0 7E8#0762128C00000311
(1700637549.974851) can0 7DF#02010CAAAAAAAAAA
(1700637549.980406) can0 7E8#04410C1538000000
(1700637550.066012) can0 7E0#0322128C00000000
(1700637550.070479) can0 7E8#0762128C000002FE
(1700637550.156937) can0 7DF#02010CAAAAAAAAAA
(1700637550.160518) can0 7E8#04410C1538000000
(1700637550.248102) can0 7E0#0322128C00000000
(1700637550.250478) can0 7E8#0762128C00000302
(1700637550.339036) can0 7DF#02010CAAAAAAAAAA
(1700637550.340391) can0 7E8#04410C1250000000
(1700637550.430230) can0 7E0#0322128C00000000
(1700637550.440731) can0 7E8#0762128C00000310
(1700637550.521154) can0 7DF#02010CAAAAAAAAAA
(1700637550.530352) can0 7E8#04410C10CC000000
(1700637550.612351) can0 7E0#0322128C00000000
(1700637550.620452) can0 7E8#0762128C0000034D
(1700637550.703242) can0 7DF#02010CAAAAAAAAAA
(1700637550.710352) can0 7E8#04410C0FA2000000
(1700637550.794408) can0 7E0#0322128C00000000
(1700637550.800758) can0 7E8#0762128C0000038F
(1700637550.885350) can0 7DF#02010CAAAAAAAAAA
(1700637550.890351) can0 7E8#04410C0E8C000000
(1700637550.976499) can0 7E0#0322128C00000000
(1700637550.980414) can0 7E8#0762128C000003EA
(1700637551.067415) can0 7DF#02010CAAAAAAAAAA
(1700637551.070349) can0 7E8#04410C0D12000000
(1700637551.158538) can0 7E0#0322128C00000000
(1700637551.160453) can0 7E8#0762128C00000601
(1700637551.249488) can0 7DF#02010CAAAAAAAAAA
(1700637551.260352) can0 7E8#04410C0C30000000
(1700637551.340649) can0 7E0#0322128C00000000
(1700637551.350580) can0 7E8#0762128C000006AF
(1700637551.431562) can0 7DF#02010CAAAAAAAAAA
(1700637551.440357) can0 7E8#04410C0C06000000
(1700637551.522680) can0 7E0#0322128C00000000
(1700637551.530392) can0 7E8#0762128C000006D5
(1700637551.613577) can0 7DF#02010CAAAAAAAAAA
(1700637551.620275) can0 7E8#04410C0B9E000000
(1700637551.704729) can0 7E0#0322128C00000000
(1700637551.710527) can0 7E8#0762128C000006D8
(1700637551.795657) can0 7DF#02010CAAAAAAAAAA
(1700637551.800538) can0 7E8#04410C0BA4000000
(1700637551.886826) can0 7E0#0322128C00000000
(1700637551.890353) can0 7E8#0762128C000006D2
(1700637551.977762) can0 7DF#02010CAAAAAAAAAA
(1700637551.980269) can0 7E8#04410C0B58000000
(1700637552.068935) can0 7E0#0322128C00000000
(1700637552.070348) can0 7E8#0762128C000006B8
(1700637552.159851) can0 7DF#02010CAAAAAAAAAA
(1700637552.170282) can0 7E8#04410C0B50000000
(1700637552.251026) can0 7E0#0322128C00000000
(1700637552.260353) can0 7E8#0762128C0000069F
(1700637552.341939) can0 7DF#02010CAAAAAAAAAA
(1700637552.350270) can0 7E8#04410C0B50000000
(1700637552.433102) can0 7E0#0322128C00000000
(1700637552.440335) can0 7E8#0762128C000006AA
(1700637552.524022) can0 7DF#02010CAAAAAAAAAA
(1700637552.530246) can0 7E8#04410C0B4C000000
(1700637552.615164) can0 7E0#0322128C00000000
(1700637552.620528) can0 7E8#0762128C00000696
(1700637552.706115) can0 7DF#02010CAAAAAAAAAA
(1700637552.710230) can0 7E8#04410C0B46000000
(1700637552.797269) can0 7E0#0322128C00000000
(1700637552.800349) can0 7E8#0762128C0000093F
(1700637552.888201) can0 7DF#02010CAAAAAAAAAA
(1700637552.890226) can0 7E8#04410C0BD8000000
(1700637552.979402) can0 7E0#0322128C00000000
(1700637552.990557) can0 7E8#0762128C00000DFB
(1700637553.070353) can0 7DF#02010CAAAAAAAAAA
(1700637553.080412) can0 7E8#04410C0CE2000000
(1700637553.161492) can0 7E0#0322128C00000000
(1700637553.170282) can0 7E8#0762128C000009F1
(1700637553.252449) can0 7DF#02010CAAAAAAAAAA
(1700637553.260209) can0 7E8#04410C0E58000000
(1700637553.343601) can0 7E0#0322128C00000000
(1700637553.350269) can0 7E8#0762128C0000065F
(1700637553.434543) can0 7DF#02010CAAAAAAAAAA
(1700637553.440180) can0 7E8#04410C0CE2000000
(1700637553.525670) can0 7E0#0322128C00000000
(1700637553.530254) can0 7E8#0762128C00000686
(1700637553.616598) can0 7DF#02010CAAAAAAAAAA
(1700637553.620171) can0 7E8#04410C0B2E000000
(1700637553.707748) can0 7E0#0322128C00000000
(1700637553.710479) can0 7E8#0762128C000009E3
(1700637553.798678) can0 7DF#02010CAAAAAAAAAA
(1700637553.810159) can0 7E8#04410C0BC2000000
(1700637553.889898) can0 7E0#0322128C00000000
(1700637553.900207) can0 7E8#0762128C000009BB
(1700637553.980802) can0 7DF#02010CAAAAAAAAAA
(1700637553.990148) can0 7E8#04410C0BA6000000
(1700637554.071954) can0 7E0#0322128C00000000
(1700637554.080530) can0 7E8#0762128C00000A3E
(1700637554.162858) can0 7DF#02010CAAAAAAAAAA
(1700637554.170139) can0 7E8#04410C0BDA000000
(1700637554.254056) can0 7E0#0322128C00000000
(1700637554.260203) can0 7E8#0762128C00000E22
(1700637554.344978) can0 7DF#02010CAAAAAAAAAA
(1700637554.350540) can0 7E8#04410C0BDA000000
(1700637554.436144) can0 7E0#0322128C00000000
(1700637554.440204) can0 7E8#0762128C00000F9B
(1700637554.527089) can0 7DF#02010CAAAAAAAAAA
(1700637554.530180) can0 7E8#04410C0C3A000000
(1700637554.618274) can0 7E0#0322128C00000000
(1700637554.620199) can0 7E8#0762128C00001208
(1700637554.709202) can0 7DF#02010CAAAAAAAAAA
(1700637554.710140) can0 7E8#04410C0CFC000000
(1700637554.800458) can0 7E0#0322128C00000000
(1700637554.810169) can0 7E8#0762128C000010C5
(1700637554.891351) can0 7DF#02010CAAAAAAAAAA
(1700637554.900101) can0 7E8#04410C0DDA000000
(1700637554.982552) can0 7E0#0322128C00000000
(1700637554.990157) can0 7E8#0762128C000008AF
(1700637555.073495) can0 7DF#02010CAAAAAAAAAA
(1700637555.080100) can0 7E8#04410C0E1C000000
(1700637555.164606) can0 7E0#0322128C00000000
(1700637555.170155) can0 7E8#0762128C00000626
(1700637555.255553) can0 7DF#02010CAAAAAAAAAA
(1700637555.260078) can0 7E8#04410C0E7C000000
(1700637555.346676) can0 7E0#0322128C00000000
(1700637555.350140) can0 7E8#0762128C000005F0
(1700637555.437622) can0 7DF#02010CAAAAAAAAAA
(1700637555.450079) can0 7E8#04410C0F18000000
(1700637555.528789) can0 7E0#0322128C00000000
(1700637555.530125) can0 7E8#0762128C000008B3
(1700637555.619702) can0 7DF#02010CAAAAAAAAAA
(1700637555.630103) can0 7E8#04410C0F18000000
(1700637555.710861) can0 7E0#0322128C00000000
(1700637555.720131) can0 7E8#0762128C000008EF
(1700637555.801771) can0 7DF#02010CAAAAAAAAAA
(1700637555.810149) can0 7E8#04410C0F16000000
(1700637555.892927) can0 7E0#0322128C00000000
(1700637555.900101) can0 7E8#0762128C00000685
(1700637555.983848) can0 7DF#02010CAAAAAAAAAA
(1700637555.990162) can0 7E8#04410C0F4A000000
(1700637556.075021) can0 7E0#0322128C00000000
(1700637556.080140) can0 7E8#0762128C000004F5
(1700637556.165914) can0 7DF#02010CAAAAAAAAAA
(1700637556.170042) can0 7E8#04410C0FE0000000
(1700637556.257104) can0 7E0#0322128C00000000
(1700637556.260099) can0 7E8#0762128C000005B2
(1700637556.348012) can0 7DF#02010CAAAAAAAAAA
(1700637556.350028) can0 7E8#04410C0FE0000000
(1700637556.439173) can0 7E0#0322128C00000000
(1700637556.450080) can0 7E8#0762128C00000578
(1700637556.530102) can0 7DF#02010CAAAAAAAAAA
(1700637556.540013) can0 7E8#04410C0FBE000000
(1700637556.621248) can0 7E0#0322128C00000000
(1700637556.630139) can0 7E8#0762128C00000553
(1700637556.712178) can0 7DF#02010CAAAAAAAAAA
(1700637556.719999) can0 7E8#04410C0FD2000000
(1700637556.803351) can0 7E0#0322128C00000000
(1700637556.810140) can0 7E8#0762128C000005D7
(1700637556.894243) can0 7DF#02010CAAAAAAAAAA
(1700637556.899988) can0 7E8#04410C1024000000
(1700637556.985451) can0 7E0#0322128C00000000
(1700637556.990150) can0 7E8#0762128C00000654
(1700637557.076397) can0 7DF#02010CAAAAAAAAAA
(1700637557.080147) can0 7E8#04410C1002000000
(1700637557.167563) can0 7E0#0322128C00000000
(1700637557.170051) can0 7E8#0762128C00000664
(1700637557.258502) can0 7DF#02010CAAAAAAAAAA
(1700637557.259976) can0 7E8#04410C1012000000
(1700637557.349624) can0 7E0#0322128C00000000
(1700637557.360054) can0 7E8#0762128C00000666
(1700637557.440557) can0 7DF#02010CAAAAAAAAAA
(1700637557.449992) can0 7E8#04410C1020000000
(1700637557.531708) can0 7E0#0322128C00000000
(1700637557.540225) can0 7E8#0762128C000007C4
(1700637557.622598) can0 7DF#02010CAAAAAAAAAA
(1700637557.629958) can0 7E8#04410C108E000000
(1700637557.713749) can0 7E0#0322128C00000000
(1700637557.720010) can0 7E8#0762128C000008E0
(1700637557.804678) can0 7DF#02010CAAAAAAAAAA
(1700637557.809930) can0 7E8#04410C10AE000000
(1700637557.895851) can0 7E0#0322128C00000000
(1700637557.899989) can0 7E8#0762128C000008A5
(1700637557.986776) can0 7DF#02010CAAAAAAAAAA
(1700637557.990180) can0 7E8#04410C1118000000
(1700637558.077954) can0 7E0#0322128C00000000
(1700637558.079983) can0 7E8#0762128C0000089C
(1700637558.168839) can0 7DF#02010CAAAAAAAAAA
(1700637558.169933) can0 7E8#04410C1170000000
(1700637558.260003) can0 7E0#0322128C00000000
(1700637558.269979) can0 7E8#0762128C00000859
(1700637558.350989) can0 7DF#02010CAAAAAAAAAA
(1700637558.359923) can0 7E8#04410C1170000000
(1700637558.442102) can0 7E0#0322128C00000000
(1700637558.449980) can0 7E8#0762128C000007AD
(1700637558.533007) can0 7DF#02010CAAAAAAAAAA
(1700637558.539898) can0 7E8#04410C11CC000000
(1700637558.624150) can0 7E0#0322128C00000000
(1700637558.629953) can0 7E8#0762128C00000723
(1700637558.715101) can0 7DF#02010CAAAAAAAAAA
(1700637558.719888) can0 7E8#04410C1216000000
(1700637558.806262) can0 7E0#0322128C00000000
(1700637558.809954) can0 7E8#0762128C000006DF
(1700637558.897201) can0 7DF#02010CAAAAAAAAAA
(1700637558.899885) can0 7E8#04410C125E000000
(1700637558.988399) can0 7E0#0322128C00000000
(1700637558.989951) can0 7E8#0762128C0000073C
(1700637559.079273) can0 7DF#02010CAAAAAAAAAA
(1700637559.089862) can0 7E8#04410C128E000000
(1700637559.170497) can0 7E0#0322128C00000000
(1700637559.180159) can0 7E8#0762128C00000894
(1700637559.261352) can0 7DF#02010CAAAAAAAAAA
(1700637559.269851) can0 7E8#04410C12DA000000
(1700637559.352524) can0 7E0#0322128C00000000
(1700637559.359916) can0 7E8#0762128C00000681
(1700637559.443457) can0 7DF#02010CAAAAAAAAAA
(1700637559.450048) can0 7E8#04410C12C2000000
(1700637559.534585) can0 7E0#0322128C00000000
(1700637559.539911) can0 7E8#0762128C000004B1
(1700637559.625551) can0 7DF#02010CAAAAAAAAAA
(1700637559.630026) can0 7E8#04410C1262000000
(1700637559.716702) can0 7E0#0322128C00000000
(1700637559.719895) can0 7E8#0762128C000003D3
(1700637559.807595) can0 7DF#02010CAAAAAAAAAA
(1700637559.809833) can0 7E8#04410C1254000000
(1700637559.898747) can0 7E0#0322128C00000000
(1700637559.899896) can0 7E8#0762128C00000384
(1700637559.989676) can0 7DF#02010CAAAAAAAAAA
(1700637559.999852) can0 7E8#04410C119A000000
(1700637560.080832) can0 7E0#0322128C00000000
(1700637560.089898) can0 7E8#0762128C00000568
(1700637560.171748) can0 7DF#02010CAAAAAAAAAA
(1700637560.179859) can0 7E8#04410C125C000000
(1700637560.262904) can0 7E0#0322128C00000000
(1700637560.269856) can0 7E8#0762128C000009A8
(1700637560.353856) can0 7DF#02010CAAAAAAAAAA
(1700637560.359996) can0 7E8#04410C125C000000
(1700637560.445008) can0 7E0#0322128C00000000
(1700637560.449853) can0 7E8#0762128C00000ABF
(1700637560.535928) can0 7DF#02010CAAAAAAAAAA
(1700637560.539781) can0 7E8#04410C11B4000000
(1700637560.627121) can0 7E0#0322128C00000000
(1700637560.629853) can0 7E8#0762128C0000075A
(1700637560.718027) can0 7DF#02010CAAAAAAAAAA
(1700637560.719774) can0 7E8#04410C1192000000
(1700637560.809204) can0 7E0#0322128C00000000
(1700637560.819852) can0 7E8#0762128C00000617
(1700637560.900135) can0 7DF#02010CAAAAAAAAAA
(1700637560.909786) can0 7E8#04410C1190000000
(1700637560.991269) can0 7E0#0322128C00000000
(1700637560.999852) can0 7E8#0762128C0000065D
(1700637561.082183) can0 7DF#02010CAAAAAAAAAA
(1700637561.089766) can0 7E8#04410C11E6000000
(1700637561.173336) can0 7E0#0322128C00000000
(1700637561.179838) can0 7E8#0762128C000006F1
(1700637561.264279) can0 7DF#02010CAAAAAAAAAA
(1700637561.269779) can0 7E8#04410C11EA000000
(1700637561.355478) can0 7E0#0322128C00000000
(1700637561.359863) can0 7E8#0762128C00000902
(1700637561.446352) can0 7DF#02010CAAAAAAAAAA
(1700637561.449740) can0 7E8#04410C11E2000000
(1700637561.537552) can0 7E0#0322128C00000000
(1700637561.539784) can0 7E8#0762128C00000A40
(1700637561.628475) can0 7DF#02010CAAAAAAAAAA
(1700637561.629728) can0 7E8#04410C11F2000000
(1700637561.719627) can0 7E0#0322128C00000000
(1700637561.729779) can0 7E8#0762128C00000B4F
(1700637561.810576) can0 7DF#02010CAAAAAAAAAA
(1700637561.819727) can0 7E8#04410C1230000000
(1700637561.901752) can0 7E0#0322128C00000000
(1700637561.909784) can0 7E8#0762128C00000A99
(1700637561.992667) can0 7DF#02010CAAAAAAAAAA
(1700637561.999704) can0 7E8#04410C128A000000
(1700637562.083865) can0 7E0#0322128C00000000
(1700637562.089768) can0 7E8#0762128C000009D9
(1700637562.174791) can0 7DF#02010CAAAAAAAAAA
(1700637562.179896) can0 7E8#04410C12C2000000
(1700637562.266002) can0 7E0#0322128C00000000
(1700637562.269760) can0 7E8#0762128C000008B9
(1700637562.356927) can0 7DF#02010CAAAAAAAAAA
(1700637562.359824) can0 7E8#04410C12C2000000
(1700637562.448101) can0 7E0#0322128C00000000
(1700637562.449768) can0 7E8#0762128C00000805
(1700637562.539017) can0 7DF#02010CAAAAAAAAAA
(1700637562.549769) can0 7E8#04410C12F0000000
(1700637562.630169) can0 7E0#0322128C00000000
(1700637562.639755) can0 7E8#0762128C00000794
(1700637562.721080) can0 7DF#02010CAAAAAAAAAA
(1700637562.729671) can0 7E8#04410C12FE000000
(1700637562.812228) can0 7E0#0322128C00000000
(1700637562.819787) can0 7E8#0762128C000006D7
(1700637562.903147) can0 7DF#02010CAAAAAAAAAA
(1700637562.909650) can0 7E8#04410C133E000000
(1700637562.994350) can0 7E0#0322128C00000000
(1700637562.999828) can0 7E8#0762128C0000069E
(1700637563.085243) can0 7DF#02010CAAAAAAAAAA
(1700637563.089851) can0 7E8#04410C1324000000
(1700637563.176443) can0 7E0#0322128C00000000
(1700637563.179705) can0 7E8#0762128C00000635
(1700637563.267352) can0 7DF#02010CAAAAAAAAAA
(1700637563.269807) can0 7E8#04410C12DE000000
(1700637563.358514) can0 7E0#0322128C00000000
(1700637563.359699) can0 7E8#0762128C00000617
(1700637563.449418) can0 7DF#02010CAAAAAAAAAA
(1700637563.459613) can0 7E8#04410C12C6000000
(1700637563.540551) can0 7E0#0322128C00000000
(1700637563.549833) can0 7E8#0762128C00000719
(1700637563.631522) can0 7DF#02010CAAAAAAAAAA
(1700637563.639828) can0 7E8#04410C12BE000000
(1700637563.722640) can0 7E0#0322128C00000000
(1700637563.729674) can0 7E8#0762128C00000A69
(1700637563.813578) can0 7DF#02010CAAAAAAAAAA
(1700637563.819621) can0 7E8#04410C12F2000000
(1700637563.904776) can0 7E0#0322128C00000000
(1700637563.909679) can0 7E8#0762128C00000C0E
(1700637563.995703) can0 7DF#02010CAAAAAAAAAA
(1700637563.999602) can0 7E8#04410C130C000000
(1700637564.086874) can0 7E0#0322128C00000000
(1700637564.089640) can0 7E8#0762128C00000AAC
(1700637564.177786) can0 7DF#02010CAAAAAAAAAA
(1700637564.179578) can0 7E8#04410C135C000000
(1700637564.268982) can0 7E0#0322128C00000000
(1700637564.279858) can0 7E8#0762128C000009BB
(1700637564.359879) can0 7DF#02010CAAAAAAAAAA
(1700637564.369778) can0 7E8#04410C1372000000
(1700637564.451035) can0 7E0#0322128C00000000
(1700637564.459628) can0 7E8#0762128C000008EB
(1700637564.541963) can0 7DF#02010CAAAAAAAAAA
(1700637564.549578) can0 7E8#04410C1372000000
(1700637564.633130) can0 7E0#0322128C00000000
(1700637564.639619) can0 7E8#0762128C00000831
(1700637564.724036) can0 7DF#02010CAAAAAAAAAA
(1700637564.729800) can0 7E8#04410C13C4000000
(1700637564.815206) can0 7E0#0322128C00000000
(1700637564.819608) can0 7E8#0762128C000005BA
(1700637564.906114) can0 7DF#02010CAAAAAAAAAA
(1700637564.909558) can0 7E8#04410C134C000000
(1700637564.997270) can0 7E0#0322128C00000000
(1700637564.999601) can0 7E8#0762128C000005BC
(1700637565.088206) can0 7DF#02010CAAAAAAAAAA
(1700637565.089645) can0 7E8#04410C13A0000000
(1700637565.179389) can0 7E0#0322128C00000000
(1700637565.189604) can0 7E8#0762128C000003F2
(1700637565.270278) can0 7DF#02010CAAAAAAAAAA
(1700637565.279598) can0 7E8#04410C135A000000
(1700637565.361489) can0 7E0#0322128C00000000
(1700637565.369580) can0 7E8#0762128C00000367
(1700637565.452397) can0 7DF#02010CAAAAAAAAAA
(1700637565.459652) can0 7E8#04410C12C4000000
(1700637565.543561) can0 7E0#0322128C00000000
(1700637565.549579) can0 7E8#0762128C00000339
(1700637565.634484) can0 7DF#02010CAAAAAAAAAA
(1700637565.639727) can0 7E8#04410C1230000000
(1700637565.725624) can0 7E0#0322128C00000000
(1700637565.729561) can0 7E8#0762128C00000455
(1700637565.816555) can0 7DF#02010CAAAAAAAAAA
(1700637565.819701) can0 7E8#04410C1222000000
(1700637565.907702) can0 7E0#0322128C00000000
(1700637565.909605) can0 7E8#0762128C00000646
(1700637565.998630) can0 7DF#02010CAAAAAAAAAA
(1700637566.009524) can0 7E8#04410C1194000000
(1700637566.089776) can0 7E0#0322128C00000000
(1700637566.099555) can0 7E8#0762128C00000876
(1700637566.180757) can0 7DF#02010CAAAAAAAAAA
(1700637566.189673) can0 7E8#04410C1178000000
(1700637566.271890) can0 7E0#0322128C00000000
(1700637566.279650) can0 7E8#0762128C00000A58
(1700637566.362804) can0 7DF#02010CAAAAAAAAAA
(1700637566.369508) can0 7E8#04410C117A000000
(1700637566.454007) can0 7E0#0322128C00000000
(1700637566.459709) can0 7E8#0762128C000009BD
(1700637566.544919) can0 7DF#02010CAAAAAAAAAA
(1700637566.549494) can0 7E8#04410C117A000000
(1700637566.636078) can0 7E0#0322128C00000000
(1700637566.639531) can0 7E8#0762128C000009C9
(1700637566.726996) can0 7DF#02010CAAAAAAAAAA
(1700637566.729480) can0 7E8#04410C11BE000000
(1700637566.818179) can0 7E0#0322128C00000000
(1700637566.819534) can0 7E8#0762128C000009F8
(1700637566.909103) can0 7DF#02010CAAAAAAAAAA
(1700637566.919632) can0 7E8#04410C11DA000000
(1700637567.000278) can0 7E0#0322128C00000000
(1700637567.009518) can0 7E8#0762128C00000945
(1700637567.091201) can0 7DF#02010CAAAAAAAAAA
(1700637567.099454) can0 7E8#04410C121E000000
(1700637567.182424) can0 7E0#0322128C00000000
(1700637567.189630) can0 7E8#0762128C00000784
(1700637567.273352) can0 7DF#02010CAAAAAAAAAA
(1700637567.279480) can0 7E8#04410C123E000000
(1700637567.364480) can0 7E0#0322128C00000000
(1700637567.369670) can0 7E8#0762128C000006AE
(1700637567.455390) can0 7DF#02010CAAAAAAAAAA
(1700637567.459415) can0 7E8#04410C1258000000
(1700637567.546535) can0 7E0#0322128C00000000
(1700637567.549628) can0 7E8#0762128C00000642
(1700637567.637454) can0 7DF#02010CAAAAAAAAAA
(1700637567.639423) can0 7E8#04410C126E000000
(1700637567.728576) can0 7E0#0322128C00000000
(1700637567.739478) can0 7E8#0762128C0000076A
(1700637567.819550) can0 7DF#02010CAAAAAAAAAA
(1700637567.829410) can0 7E8#04410C129A000000
(1700637567.910709) can0 7E0#0322128C00000000
(1700637567.919478) can0 7E8#0762128C000007E7
(1700637568.001601) can0 7DF#02010CAAAAAAAAAA
(1700637568.009403) can0 7E8#04410C128C000000
(1700637568.092758) can0 7E0#0322128C00000000
(1700637568.099476) can0 7E8#0762128C000007F0
(1700637568.183672) can0 7DF#02010CAAAAAAAAAA
(1700637568.189351) can0 7E8#04410C12AA000000
(1700637568.274831) can0 7E0#0322128C00000000
(1700637568.279557) can0 7E8#0762128C000007D3
(1700637568.365750) can0 7DF#02010CAAAAAAAAAA
(1700637568.369353) can0 7E8#04410C12BE000000
(1700637568.456905) can0 7E0#0322128C00000000
(1700637568.459449) can0 7E8#0762128C0000081D
(1700637568.547806) can0 7DF#02010CAAAAAAAAAA
(1700637568.549354) can0 7E8#04410C12BE000000
(1700637568.638979) can0 7E0#0322128C00000000
(1700637568.649478) can0 7E8#0762128C000006AF
(1700637568.729898) can0 7DF#02010CAAAAAAAAAA
(1700637568.739358) can0 7E8#04410C12B0000000
(1700637568.821078) can0 7E0#0322128C00000000
(1700637568.829557) can0 7E8#0762128C00000602
(1700637568.912009) can0 7DF#02010CAAAAAAAAAA
(1700637568.919355) can0 7E8#04410C12C0000000
(1700637569.003170) can0 7E0#0322128C00000000
(1700637569.009424) can0 7E8#0762128C000005E4
(1700637569.094077) can0 7DF#02010CAAAAAAAAAA
(1700637569.099353) can0 7E8#04410C12B8000000
(1700637569.185237) can0 7E0#0322128C00000000
(1700637569.189396) can0 7E8#0762128C000006BB
(1700637569.276158) can0 7DF#02010CAAAAAAAAAA
(1700637569.279353) can0 7E8#04410C12C4000000
(1700637569.367351) can0 7E0#0322128C00000000
(1700637569.369352) can0 7E8#0762128C00000941
(1700637569.458247) can0 7DF#02010CAAAAAAAAAA
(1700637569.459348) can0 7E8#04410C1300000000
(1700637569.549458) can0 7E0#0322128C00000000
(1700637569.559454) can0 7E8#0762128C00000977
(1700637569.640359) can0 7DF#02010CAAAAAAAAAA
(1700637569.649480) can0 7E8#04410C12FE000000
(1700637569.731552) can0 7E0#0322128C00000000
(1700637569.739352) can0 7E8#0762128C000005CE
(1700637569.822479) can0 7DF#02010CAAAAAAAAAA
(1700637569.829556) can0 7E8#04410C12C2000000
(1700637569.913582) can0 7E0#0322128C00000000
(1700637569.919352) can0 7E8#0762128C0000040D
(1700637570.004530) can0 7DF#02010CAAAAAAAAAA
(1700637570.009354) can0 7E8#04410C1292000000
(1700637570.095639) can0 7E0#0322128C00000000
(1700637570.099352) can0 7E8#0762128C0000035F
(1700637570.186582) can0 7DF#02010CAAAAAAAAAA
(1700637570.189258) can0 7E8#04410C1274000000
(1700637570.277731) can0 7E0#0322128C00000000
(1700637570.279526) can0 7E8#0762128C000002C1
(1700637570.368664) can0 7DF#02010CAAAAAAAAAA
(1700637570.379238) can0 7E8#04410C11E0000000
(1700637570.459851) can0 7E0#0322128C00000000
(1700637570.469574) can0 7E8#0762128C00000292
(1700637570.550771) can0 7DF#02010CAAAAAAAAAA
(1700637570.559229) can0 7E8#04410C11E0000000
(1700637570.641952) can0 7E0#0322128C00000000
(1700637570.649352) can0 7E8#0762128C00000260
(1700637570.732862) can0 7DF#02010CAAAAAAAAAA
(1700637570.739231) can0 7E8#04410C111C000000
(1700637570.824025) can0 7E0#0322128C00000000
(1700637570.829262) can0 7E8#0762128C0000023A
(1700637570.914960) can0 7DF#02010CAAAAAAAAAA
(1700637570.919208) can0 7E8#04410C1116000000
(1700637571.006114) can0 7E0#0322128C00000000
(1700637571.009267) can0 7E8#0762128C00000232
(1700637571.097028) can0 7DF#02010CAAAAAAAAAA
(1700637571.099199) can0 7E8#04410C104E000000
(1700637571.188179) can0 7E0#0322128C00000000
(1700637571.189250) can0 7E8#0762128C00000224
(1700637571.279102) can0 7DF#02010CAAAAAAAAAA
(1700637571.289202) can0 7E8#04410C0EB2000000
(1700637571.370274) can0 7E0#0322128C00000000
(1700637571.379239) can0 7E8#0762128C0000024D
(1700637571.461169) can0 7DF#02010CAAAAAAAAAA
(1700637571.469162) can0 7E8#04410C0D3C000000
(1700637571.552351) can0 7E0#0322128C00000000
(1700637571.559229) can0 7E8#0762128C00000279
(1700637571.643268) can0 7DF#02010CAAAAAAAAAA
(1700637571.649179) can0 7E8#04410C0BF4000000
(1700637571.734456) can0 7E0#0322128C00000000
(1700637571.739230) can0 7E8#0762128C00000426
(1700637571.825353) can0 7DF#02010CAAAAAAAAAA
(1700637571.829156) can0 7E8#04410C0A7E000000
(1700637571.916522) can0 7E0#0322128C00000000
(1700637571.919451) can0 7E8#0762128C000006A2
(1700637572.007460) can0 7DF#02010CAAAAAAAAAA
(1700637572.009138) can0 7E8#04410C0BA2000000
(1700637572.098603) can0 7E0#0322128C00000000
(1700637572.109400) can0 7E8#0762128C000007EB
(1700637572.189537) can0 7DF#02010CAAAAAAAAAA
(1700637572.199138) can0 7E8#04410C0FE6000000
(1700637572.280675) can0 7E0#0322128C00000000
(1700637572.289183) can0 7E8#0762128C000007E8
(1700637572.371583) can0 7DF#02010CAAAAAAAAAA
(1700637572.379152) can0 7E8#04410C107E000000
(1700637572.462731) can0 7E0#0322128C00000000
(1700637572.469426) can0 7E8#0762128C0000093F
(1700637572.553655) can0 7DF#02010CAAAAAAAAAA
(1700637572.559353) can0 7E8#04410C107E000000
(1700637572.644827) can0 7E0#0322128C00000000
(1700637572.649238) can0 7E8#0762128C00000A02
(1700637572.735737) can0 7DF#02010CAAAAAAAAAA
(1700637572.739100) can0 7E8#04410C0FE0000000
(1700637572.826953) can0 7E0#0322128C00000000
(1700637572.829148) can0 7E8#0762128C00000AF2
(1700637572.917853) can0 7DF#02010CAAAAAAAAAA
(1700637572.929104) can0 7E8#04410C0DEE000000
(1700637573.009057) can0 7E0#0322128C00000000
(1700637573.019155) can0 7E8#0762128C00000ACF
(1700637573.099984) can0 7DF#02010CAAAAAAAAAA
(1700637573.109270) can0 7E8#04410C0DF8000000
(1700637573.191181) can0 7E0#0322128C00000000
(1700637573.199143) can0 7E8#0762128C00000783
(1700637573.282105) can0 7DF#02010CAAAAAAAAAA
(1700637573.289077) can0 7E8#04410C0E30000000
(1700637573.373250) can0 7E0#0322128C00000000
(1700637573.379149) can0 7E8#0762128C0000062F
(1700637573.464167) can0 7DF#02010CAAAAAAAAAA
(1700637573.469083) can0 7E8#04410C0DF0000000
(1700637573.555363) can0 7E0#0322128C00000000
(1700637573.559123) can0 7E8#0762128C000004CB
(1700637573.646270) can0 7DF#02010CAAAAAAAAAA
(1700637573.649047) can0 7E8#04410C0DBE000000
(1700637573.737498) can0 7E0#0322128C00000000
(1700637573.739098) can0 7E8#0762128C0000043E
(1700637573.828398) can0 7DF#02010CAAAAAAAAAA
(1700637573.839237) can0 7E8#04410C0C30000000
(1700637573.919556) can0 7E0#0322128C00000000
(1700637573.929103) can0 7E8#0762128C0000042F
(1700637574.010480) can0 7DF#02010CAAAAAAAAAA
(1700637574.019025) can0 7E8#04410C0AF6000000
(1700637574.101602) can0 7E0#0322128C00000000
(1700637574.109081) can0 7E8#0762128C000004A6
(1700637574.192535) can0 7DF#02010CAAAAAAAAAA
(1700637574.199006) can0 7E8#04410C0A60000000
(1700637574.283688) can0 7E0#0322128C00000000
(1700637574.289131) can0 7E8#0762128C000004E3
(1700637574.374606) can0 7DF#02010CAAAAAAAAAA
(1700637574.379029) can0 7E8#04410C0A24000000
(1700637574.465758) can0 7E0#0322128C00000000
(1700637574.469140) can0 7E8#0762128C00000522
(1700637574.556701) can0 7DF#02010CAAAAAAAAAA
(1700637574.559130) can0 7E8#04410C0A24000000
(1700637574.647860) can0 7E0#0322128C00000000
(1700637574.649275) can0 7E8#0762128C00000576
(1700637574.738775) can0 7DF#02010CAAAAAAAAAA
(1700637574.749014) can0 7E8#04410C0A08000000
(1700637574.829958) can0 7E0#0322128C00000000
(1700637574.839045) can0 7E8#0762128C000005B3
(1700637574.920853) can0 7DF#02010CAAAAAAAAAA
(1700637574.928979) can0 7E8#04410C0A5A000000
(1700637575.012019) can0 7E0#0322128C00000000
(1700637575.019028) can0 7E8#0762128C000005D5
(1700637575.102916) can0 7DF#02010CAAAAAAAAAA
(1700637575.108979) can0 7E8#04410C0A6A000000
(1700637575.194078) can0 7E0#0322128C00000000
(1700637575.199029) can0 7E8#0762128C000005C1
(1700637575.285024) can0 7DF#02010CAAAAAAAAAA
(1700637575.288953) can0 7E8#04410C0A76000000
(1700637575.376203) can0 7E0#0322128C00000000
(1700637575.379025) can0 7E8#0762128C000005BD
(1700637575.467130) can0 7DF#02010CAAAAAAAAAA
(1700637575.468955) can0 7E8#04410C0A74000000
(1700637575.558354) can0 7E0#0322128C00000000
(1700637575.569204) can0 7E8#0762128C000005D1
(1700637575.649207) can0 7DF#02010CAAAAAAAAAA
(1700637575.659057) can0 7E8#04410C0A50000000
(1700637575.740414) can0 7E0#0322128C00000000
(1700637575.748998) can0 7E8#0762128C000005EB
(1700637575.831354) can0 7DF#02010CAAAAAAAAAA
(1700637575.838918) can0 7E8#04410C0ABC000000
(1700637575.922481) can0 7E0#0322128C00000000
(1700637575.928990) can0 7E8#0762128C000005EB
(1700637576.013354) can0 7DF#02010CAAAAAAAAAA
(1700637576.018910) can0 7E8#04410C0AD8000000
(1700637576.104551) can0 7E0#0322128C00000000
(1700637576.109120) can0 7E8#0762128C000005D6
(1700637576.195482) can0 7DF#02010CAAAAAAAAAA
(1700637576.198901) can0 7E8#04410C0B18000000
(1700637576.286624) can0 7E0#0322128C00000000
(1700637576.289206) can0 7E8#0762128C000005A9
(1700637576.377581) can0 7DF#02010CAAAAAAAAAA
(1700637576.378893) can0 7E8#04410C0B00000000
(1700637576.468736) can0 7E0#0322128C00000000
(1700637576.479111) can0 7E8#0762128C0000058A
(1700637576.559635) can0 7DF#02010CAAAAAAAAAA
(1700637576.568891) can0 7E8#04410C0B04000000
(1700637576.650783) can0 7E0#0322128C00000000
(1700637576.658958) can0 7E8#0762128C0000056C
(1700637576.741707) can0 7DF#02010CAAAAAAAAAA
(1700637576.749078) can0 7E8#04410C0B04000000
(1700637576.832852) can0 7E0#0322128C00000000
(1700637576.839078) can0 7E8#0762128C00000582
(1700637576.923801) can0 7DF#02010CAAAAAAAAAA
(1700637576.928862) can0 7E8#04410C0B1C000000
(1700637577.014980) can0 7E0#0322128C00000000
(1700637577.018913) can0 7E8#0762128C00000557
(1700637577.105870) can0 7DF#02010CAAAAAAAAAA
(1700637577.108852) can0 7E8#04410C0AF2000000
(1700637577.197054) can0 7E0#0322128C00000000
(1700637577.199230) can0 7E8#0762128C00000516
(1700637577.287965) can0 7DF#02010CAAAAAAAAAA
(1700637577.298856) can0 7E8#04410C0AE4000000
(1700637577.379117) can0 7E0#0322128C00000000
(1700637577.388905) can0 7E8#0762128C0000050B
(1700637577.470034) can0 7DF#02010CAAAAAAAAAA
(1700637577.479122) can0 7E8#04410C0AFA000000
(1700637577.561213) can0 7E0#0322128C00000000
(1700637577.569205) can0 7E8#0762128C00000508
(1700637577.652124) can0 7DF#02010CAAAAAAAAAA
(1700637577.658853) can0 7E8#04410C0AB0000000
(1700637577.743358) can0 7E0#0322128C00000000
(1700637577.749102) can0 7E8#0762128C0000050F
(1700637577.834229) can0 7DF#02010CAAAAAAAAAA
(1700637577.838804) can0 7E8#04410C0AAE000000
(1700637577.925426) can0 7E0#0322128C00000000
(1700637577.928864) can0 7E8#0762128C0000073F
(1700637578.016352) can0 7DF#02010CAAAAAAAAAA
(1700637578.019001) can0 7E8#04410C0C5E000000
(1700637578.107528) can0 7E0#0322128C00000000
(1700637578.109009) can0 7E8#0762128C00000914
(1700637578.198436) can0 7DF#02010CAAAAAAAAAA
(1700637578.208795) can0 7E8#04410C10FA000000
(1700637578.289581) can0 7E0#0322128C00000000
(1700637578.298867) can0 7E8#0762128C0000063D
(1700637578.380512) can0 7DF#02010CAAAAAAAAAA
(1700637578.388787) can0 7E8#04410C1150000000
(1700637578.471640) can0 7E0#0322128C00000000
(1700637578.478854) can0 7E8#0762128C000004D8
(1700637578.562579) can0 7DF#02010CAAAAAAAAAA
(1700637578.568768) can0 7E8#04410C0EC6000000
(1700637578.653759) can0 7E0#0322128C00000000
(1700637578.659025) can0 7E8#0762128C0000045F
(1700637578.744660) can0 7DF#02010CAAAAAAAAAA
(1700637578.748765) can0 7E8#04410C0EC6000000
(1700637578.835849) can0 7E0#0322128C00000000
(1700637578.838828) can0 7E8#0762128C0000055C
(1700637578.926731) can0 7DF#02010CAAAAAAAAAA
(1700637578.928746) can0 7E8#04410C0C38000000
(1700637579.017900) can0 7E0#0322128C00000000
(1700637579.029169) can0 7E8#0762128C000008E8
(1700637579.108849) can0 7DF#02010CAAAAAAAAAA
(1700637579.118898) can0 7E8#04410C0BE0000000
(1700637579.199990) can0 7E0#0322128C00000000
(1700637579.208797) can0 7E8#0762128C00000766
(1700637579.290907) can0 7DF#02010CAAAAAAAAAA
(1700637579.298730) can0 7E8#04410C0E38000000
(1700637579.382115) can0 7E0#0322128C00000000
(1700637579.389020) can0 7E8#0762128C0000064D
(1700637579.473010) can0 7DF#02010CAAAAAAAAAA
(1700637579.478731) can0 7E8#04410C110C000000
(1700637579.564169) can0 7E0#0322128C00000000
(1700637579.568787) can0 7E8#0762128C00000586
(1700637579.655101) can0 7DF#02010CAAAAAAAAAA
(1700637579.658708) can0 7E8#04410C1304000000
(1700637579.746257) can0 7E0#0322128C00000000
(1700637579.748765) can0 7E8#0762128C00000473
(1700637579.837157) can0 7DF#02010CAAAAAAAAAA
(1700637579.838823) can0 7E8#04410C13A0000000
(1700637579.928346) can0 7E0#0322128C00000000
(1700637579.938753) can0 7E8#0762128C000003EF
(1700637580.019234) can0 7DF#02010CAAAAAAAAAA
(1700637580.028703) can0 7E8#04410C12BC000000
(1700637580.110421) can0 7E0#0322128C00000000
(1700637580.118746) can0 7E8#0762128C00000363
(1700637580.201355) can0 7DF#02010CAAAAAAAAAA
(1700637580.208678) can0 7E8#04410C12B2000000
(1700637580.292504) can0 7E0#0322128C00000000
(1700637580.298742) can0 7E8#0762128C000002BD
(1700637580.383427) can0 7DF#02010CAAAAAAAAAA
(1700637580.388860) can0 7E8#04410C10FA000000
(1700637580.474563) can0 7E0#0322128C00000000
(1700637580.478922) can0 7E8#0762128C000002B7
(1700637580.565507) can0 7DF#02010CAAAAAAAAAA
(1700637580.568853) can0 7E8#04410C0F26000000
(1700637580.656629) can0 7E0#0322128C00000000
(1700637580.658726) can0 7E8#0762128C00000318
(1700637580.747560) can0 7DF#02010CAAAAAAAAAA
(1700637580.748701) can0 7E8#04410C0F26000000
(1700637580.838706) can0 7E0#0322128C00000000
(1700637580.848704) can0 7E8#0762128C00000360
(1700637580.929631) can0 7DF#02010CAAAAAAAAAA
(1700637580.938646) can0 7E8#04410C0DAE000000
(1700637581.020798) can0 7E0#0322128C00000000
(1700637581.028854) can0 7E8#0762128C00000434
(1700637581.111708) can0 7DF#02010CAAAAAAAAAA
(1700637581.118632) can0 7E8#04410C0C62000000
(1700637581.202873) can0 7E0#0322128C00000000
(1700637581.208705) can0 7E8#0762128C0000055E
(1700637581.293781) can0 7DF#02010CAAAAAAAAAA
(1700637581.298610) can0 7E8#04410C0B84000000
(1700637581.384986) can0 7E0#0322128C00000000
(1700637581.388673) can0 7E8#0762128C0000054A
(1700637581.475868) can0 7DF#02010CAAAAAAAAAA
(1700637581.478620) can0 7E8#04410C0B56000000
(1700637581.567039) can0 7E0#0322128C00000000
(1700637581.568657) can0 7E8#0762128C00000576
(1700637581.657957) can0 7DF#02010CAAAAAAAAAA
(1700637581.668616) can0 7E8#04410C0B94000000
(1700637581.749119) can0 7E0#0322128C00000000
(1700637581.758661) can0 7E8#0762128C0000056D
(1700637581.840046) can0 7DF#02010CAAAAAAAAAA
(1700637581.848797) can0 7E8#04410C0B72000000
(1700637581.931208) can0 7E0#0322128C00000000
(1700637581.938652) can0 7E8#0762128C00000565
(1700637582.022144) can0 7DF#02010CAAAAAAAAAA
(1700637582.028581) can0 7E8#04410C0B34000000
(1700637582.113351) can0 7E0#0322128C00000000
(1700637582.118630) can0 7E8#0762128C00000534
(1700637582.204231) can0 7DF#02010CAAAAAAAAAA
(1700637582.208580) can0 7E8#04410C0AAC000000
(1700637582.295419) can0 7E0#0322128C00000000
(1700637582.298889) can0 7E8#0762128C00000556
(1700637582.386355) can0 7DF#02010CAAAAAAAAAA
(1700637582.388714) can0 7E8#04410C0A8C000000
(1700637582.477536) can0 7E0#0322128C00000000
(1700637582.478643) can0 7E8#0762128C0000057E
(1700637582.568453) can0 7DF#02010CAAAAAAAAAA
(1700637582.578568) can0 7E8#04410C0A46000000
(1700637582.659608) can0 7E0#0322128C00000000
(1700637582.668633) can0 7E8#0762128C000005F7
(1700637582.750546) can0 7DF#02010CAAAAAAAAAA
(1700637582.758559) can0 7E8#04410C0A46000000
(1700637582.841683) can0 7E0#0322128C00000000
(1700637582.848617) can0 7E8#0762128C000005FC
(1700637582.932619) can0 7DF#02010CAAAAAAAAAA
(1700637582.938560) can0 7E8#04410C0A6E000000
(1700637583.023773) can0 7E0#0322128C00000000
(1700637583.028586) can0 7E8#0762128C000005E6
(1700637583.114704) can0 7DF#02010CAAAAAAAAAA
(1700637583.118562) can0 7E8#04410C0AFC000000
(1700637583.205853) can0 7E0#0322128C00000000
(1700637583.208772) can0 7E8#0762128C00000615
(1700637583.296752) can0 7DF#02010CAAAAAAAAAA
(1700637583.298548) can0 7E8#04410C0ADA000000
(1700637583.387916) can0 7E0#0322128C00000000
(1700637583.398580) can0 7E8#0762128C00000602
(1700637583.478857) can0 7DF#02010CAAAAAAAAAA
(1700637583.488539) can0 7E8#04410C0AD8000000
(1700637583.570015) can0 7E0#0322128C00000000
(1700637583.578577) can0 7E8#0762128C00000684
(1700637583.660928) can0 7DF#02010CAAAAAAAAAA
(1700637583.668533) can0 7E8#04410C0BB6000000
(1700637583.752103) can0 7E0#0322128C00000000
(1700637583.758584) can0 7E8#0762128C00000801
(1700637583.843009) can0 7DF#02010CAAAAAAAAAA
(1700637583.848507) can0 7E8#04410C0E44000000
(1700637583.934168) can0 7E0#0322128C00000000
(1700637583.938563) can0 7E8#0762128C000008F6
(1700637584.025107) can0 7DF#02010CAAAAAAAAAA
(1700637584.028490) can0 7E8#04410C10AC000000
(1700637584.116245) can0 7E0#0322128C00000000
(1700637584.118557) can0 7E8#0762128C00000846
(1700637584.207174) can0 7DF#02010CAAAAAAAAAA
(1700637584.208495) can0 7E8#04410C13A2000000
(1700637584.298352) can0 7E0#0322128C00000000
(1700637584.308732) can0 7E8#0762128C000006F0
(1700637584.389253) can0 7DF#02010CAAAAAAAAAA
(1700637584.398669) can0 7E8#04410C1530000000
(1700637584.480456) can0 7E0#0322128C00000000
(1700637584.488661) can0 7E8#0762128C000005ED
(1700637584.571352) can0 7DF#02010CAAAAAAAAAA
(1700637584.578485) can0 7E8#04410C14CE000000
(1700637584.662529) can0 7E0#0322128C00000000
(1700637584.668559) can0 7E8#0762128C00000661
(1700637584.753453) can0 7DF#02010CAAAAAAAAAA
(1700637584.758458) can0 7E8#04410C14CE000000
(1700637584.844578) can0 7E0#0322128C00000000
(1700637584.848524) can0 7E8#0762128C0000089A
(1700637584.935516) can0 7DF#02010CAAAAAAAAAA
(1700637584.938462) can0 7E8#04410C13B2000000
(1700637585.026652) can0 7E0#0322128C00000000
(1700637585.028670) can0 7E8#0762128C00000A2D
(1700637585.117603) can0 7DF#02010CAAAAAAAAAA
(1700637585.128617) can0 7E8#04410C133C000000
(1700637585.208785) can0 7E0#0322128C00000000
(1700637585.218505) can0 7E8#0762128C00000B92
(1700637585.299701) can0 7DF#02010CAAAAAAAAAA
(1700637585.308439) can0 7E8#04410C12F8000000
(1700637585.390900) can0 7E0#0322128C00000000
(1700637585.398661) can0 7E8#0762128C00000A28
(1700637585.481831) can0 7DF#02010CAAAAAAAAAA
(1700637585.488423) can0 7E8#04410C133C000000
(1700637585.573021) can0 7E0#0322128C00000000
(1700637585.578709) can0 7E8#0762128C0000082D
(1700637585.663954) can0 7DF#02010CAAAAAAAAAA
(1700637585.668414) can0 7E8#04410C11A8000000
(1700637585.755078) can0 7E0#0322128C00000000
(1700637585.758462) can0 7E8#0762128C00000856
(1700637585.845999) can0 7DF#02010CAAAAAAAAAA
(1700637585.848410) can0 7E8#04410C0F88000000
(1700637585.937165) can0 7E0#0322128C00000000
(1700637585.938490) can0 7E8#0762128C000009FB
(1700637586.028102) can0 7DF#02010CAAAAAAAAAA
(1700637586.038555) can0 7E8#04410C131E000000
(1700637586.119351) can0 7E0#0322128C00000000
(1700637586.128457) can0 7E8#0762128C000009C6
(1700637586.210245) can0 7DF#02010CAAAAAAAAAA
(1700637586.218359) can0 7E8#04410C12E6000000
(1700637586.301481) can0 7E0#0322128C00000000
(1700637586.308636) can0 7E8#0762128C00000A0C
(1700637586.392382) can0 7DF#02010CAAAAAAAAAA
(1700637586.398435) can0 7E8#04410C158C000000
(1700637586.483568) can0 7E0#0322128C00000000
(1700637586.488407) can0 7E8#0762128C00000996
(1700637586.574511) can0 7DF#02010CAAAAAAAAAA
(1700637586.578351) can0 7E8#04410C14F4000000
(1700637586.665646) can0 7E0#0322128C00000000
(1700637586.668418) can0 7E8#0762128C00000642
(1700637586.756578) can0 7DF#02010CAAAAAAAAAA
(1700637586.758354) can0 7E8#04410C14F4000000
(1700637586.847741) can0 7E0#0322128C00000000
(1700637586.858462) can0 7E8#0762128C000006C8
(1700637586.938675) can0 7DF#02010CAAAAAAAAAA
(1700637586.948358) can0 7E8#04410C1782000000
(1700637587.029853) can0 7E0#0322128C00000000
(1700637587.038583) can0 7E8#0762128C00000865
(1700637587.120757) can0 7DF#02010CAAAAAAAAAA
(1700637587.128356) can0 7E8#04410C1714000000
(1700637587.211936) can0 7E0#0322128C00000000
(1700637587.218398) can0 7E8#0762128C000008F7
(1700637587.302855) can0 7DF#02010CAAAAAAAAAA
(1700637587.308357) can0 7E8#04410C18C0000000
(1700637587.393991) can0 7E0#0322128C00000000
(1700637587.398354) can0 7E8#0762128C00000916
(1700637587.484938) can0 7DF#02010CAAAAAAAAAA
(1700637587.488278) can0 7E8#04410C198C000000
(1700637587.576108) can0 7E0#0322128C00000000
(1700637587.578354) can0 7E8#0762128C000008BC
(1700637587.667037) can0 7DF#02010CAAAAAAAAAA
(1700637587.668353) can0 7E8#04410C1BC4000000
(1700637587.758203) can0 7E0#0322128C00000000
(1700637587.768562) can0 7E8#0762128C000009C0
(1700637587.849100) can0 7DF#02010CAAAAAAAAAA
(1700637587.858249) can0 7E8#04410C1CF6000000
(1700637587.940270) can0 7E0#0322128C00000000
(1700637587.948357) can0 7E8#0762128C00000A67
(1700637588.031209) can0 7DF#02010CAAAAAAAAAA
(1700637588.038253) can0 7E8#04410C1F0E000000
(1700637588.122453) can0 7E0#0322128C00000000
(1700637588.128493) can0 7E8#0762128C00000A9D
(1700637588.213336) can0 7DF#02010CAAAAAAAAAA
(1700637588.218236) can0 7E8#04410C212C000000
(1700637588.304548) can0 7E0#0322128C00000000
(1700637588.308357) can0 7E8#0762128C00000AF5
(1700637588.395484) can0 7DF#02010CAAAAAAAAAA
(1700637588.398261) can0 7E8#04410C2354000000
(1700637588.486614) can0 7E0#0322128C00000000
(1700637588.488278) can0 7E8#0762128C00000AF8
(1700637588.577580) can0 7DF#02010CAAAAAAAAAA
(1700637588.588233) can0 7E8#04410C24F2000000
(1700637588.668750) can0 7E0#0322128C00000000
(1700637588.678264) can0 7E8#0762128C00000463
(1700637588.759677) can0 7DF#02010CAAAAAAAAAA
(1700637588.768233) can0 7E8#04410C2304000000
(1700637588.850860) can0 7E0#0322128C00000000
(1700637588.858286) can0 7E8#0762128C00000307
(1700637588.941783) can0 7DF#02010CAAAAAAAAAA
(1700637588.948434) can0 7E8#04410C2304000000
(1700637589.032960) can0 7E0#0322128C00000000
(1700637589.038252) can0 7E8#0762128C000002FD
(1700637589.123862) can0 7DF#02010CAAAAAAAAAA
(1700637589.128231) can0 7E8#04410C1F30000000
(1700637589.215016) can0 7E0#0322128C00000000
(1700637589.218229) can0 7E8#0762128C00000296
(1700637589.305924) can0 7DF#02010CAAAAAAAAAA
(1700637589.308179) can0 7E8#04410C1B9E000000
(1700637589.397101) can0 7E0#0322128C00000000
(1700637589.398245) can0 7E8#0762128C00000523
(1700637589.488033) can0 7DF#02010CAAAAAAAAAA
(1700637589.498152) can0 7E8#04410C17B4000000
(1700637589.579213) can0 7E0#0322128C00000000
(1700637589.588459) can0 7E8#0762128C00000CDE
(1700637589.670120) can0 7DF#02010CAAAAAAAAAA
(1700637589.678158) can0 7E8#04410C131C000000
(1700637589.761353) can0 7E0#0322128C00000000
(1700637589.768234) can0 7E8#0762128C00000FC3
(1700637589.852248) can0 7DF#02010CAAAAAAAAAA
(1700637589.858145) can0 7E8#04410C13F8000000
(1700637589.943491) can0 7E0#0322128C00000000
(1700637589.948272) can0 7E8#0762128C00000FA2
(1700637590.034413) can0 7DF#02010CAAAAAAAAAA
(1700637590.038133) can0 7E8#04410C150E000000
(1700637590.125584) can0 7E0#0322128C00000000
(1700637590.128421) can0 7E8#0762128C00000F54
(1700637590.216501) can0 7DF#02010CAAAAAAAAAA
(1700637590.218122) can0 7E8#04410C163C000000
(1700637590.307709) can0 7E0#0322128C00000000
(1700637590.318425) can0 7E8#0762128C0000100B
(1700637590.398608) can0 7DF#02010CAAAAAAAAAA
(1700637590.408110) can0 7E8#04410C175C000000
(1700637590.489812) can0 7E0#0322128C00000000
(1700637590.498154) can0 7E8#0762128C000010AD
(1700637590.580736) can0 7DF#02010CAAAAAAAAAA
(1700637590.588109) can0 7E8#04410C183E000000
(1700637590.671953) can0 7E0#0322128C00000000
(1700637590.678547) can0 7E8#0762128C00001036
(1700637590.762879) can0 7DF#02010CAAAAAAAAAA
(1700637590.768103) can0 7E8#04410C1950000000
(1700637590.854104) can0 7E0#0322128C00000000
(1700637590.858142) can0 7E8#0762128C00000F4E
(1700637590.945017) can0 7DF#02010CAAAAAAAAAA
(1700637590.948075) can0 7E8#04410C1950000000
(1700637591.036232) can0 7E0#0322128C00000000
(1700637591.048352) can0 7E8#0762128C00000E82
(1700637591.127138) can0 7DF#02010CAAAAAAAAAA
