(1700637671.883256) can0 7E0#0322128C00000000
(1700637671.893578) can0 7E8#0762128C0000099D
(1700637671.974166) can0 7DF#02010CAAAAAAAAAA
(1700637671.983520) can0 7E8#04410C0F18000000
(1700637672.065350) can0 7E0#0322128C00000000
(1700637672.073558) can0 7E8#0762128C00000C17
(1700637672.156265) can0 7DF#02010CAAAAAAAAAA
(1700637672.163528) can0 7E8#04410C0F5A000000
(1700637672.247479) can0 7E0#0322128C00000000
(1700637672.253559) can0 7E8#0762128C00000CB6
(1700637672.338391) can0 7DF#02010CAAAAAAAAAA
(1700637672.343504) can0 7E8#04410C0F5A000000
(1700637672.429563) can0 7E0#0322128C00000000
(1700637672.433557) can0 7E8#0762128C00000C8D
(1700637672.520511) can0 7DF#02010CAAAAAAAAAA
(1700637672.523620) can0 7E8#04410C0FF4000000
(1700637672.611651) can0 7E0#0322128C00000000
(1700637672.613744) can0 7E8#0762128C00000C0D
(1700637672.702578) can0 7DF#02010CAAAAAAAAAA
(1700637672.703825) can0 7E8#04410C10A4000000
(1700637672.793764) can0 7E0#0322128C00000000
(1700637672.803544) can0 7E8#0762128C00000B54
(1700637672.884702) can0 7DF#02010CAAAAAAAAAA
(1700637672.893499) can0 7E8#04410C1198000000
(1700637672.975896) can0 7E0#0322128C00000000
(1700637672.983539) can0 7E8#0762128C00000A7A
(1700637673.066805) can0 7DF#02010CAAAAAAAAAA
(1700637673.073481) can0 7E8#04410C1252000000
(1700637673.157974) can0 7E0#0322128C00000000
(1700637673.163534) can0 7E8#0762128C00000973
(1700637673.248897) can0 7DF#02010CAAAAAAAAAA
(1700637673.253458) can0 7E8#04410C133C000000
(1700637673.340053) can0 7E0#0322128C00000000
(1700637673.343989) can0 7E8#0762128C00000954
(1700637673.430986) can0 7DF#02010CAAAAAAAAAA
(1700637673.433457) can0 7E8#04410C1416000000
(1700637673.522142) can0 7E0#0322128C00000000
(1700637673.523514) can0 7E8#0762128C000008E0
(1700637673.613059) can0 7DF#02010CAAAAAAAAAA
(1700637673.623450) can0 7E8#04410C149A000000
(1700637673.704233) can0 7E0#0322128C00000000
(1700637673.713547) can0 7E8#0762128C0000092C
(1700637673.795168) can0 7DF#02010CAAAAAAAAAA
(1700637673.803429) can0 7E8#04410C154A000000
(1700637673.886350) can0 7E0#0322128C00000000
(1700637673.893499) can0 7E8#0762128C00000941
(1700637673.977256) can0 7DF#02010CAAAAAAAAAA
(1700637673.983418) can0 7E8#04410C15EC000000
(1700637674.068451) can0 7E0#0322128C00000000
(1700637674.073578) can0 7E8#0762128C00000995
(1700637674.159336) can0 7DF#02010CAAAAAAAAAA
(1700637674.163404) can0 7E8#04410C1692000000
(1700637674.250555) can0 7E0#0322128C00000000
(1700637674.253479) can0 7E8#0762128C00000A5A
(1700637674.341486) can0 7DF#02010CAAAAAAAAAA
(1700637674.343397) can0 7E8#04410C1692000000
(1700637674.432657) can0 7E0#0322128C00000000
(1700637674.443453) can0 7E8#0762128C00000ADB
(1700637674.523605) can0 7DF#02010CAAAAAAAAAA
(1700637674.533355) can0 7E8#04410C176C000000
(1700637674.614800) can0 7E0#0322128C00000000
(1700637674.623455) can0 7E8#0762128C00000AE1
(1700637674.705734) can0 7DF#02010CAAAAAAAAAA
(1700637674.713509) can0 7E8#04410C17EA000000
(1700637674.796929) can0 7E0#0322128C00000000
(1700637674.803426) can0 7E8#0762128C00000B14
(1700637674.887852) can0 7DF#02010CAAAAAAAAAA
(1700637674.893355) can0 7E8#04410C18F2000000
(1700637674.979024) can0 7E0#0322128C00000000
(1700637674.983422) can0 7E8#0762128C00000C2B
(1700637675.069954) can0 7DF#02010CAAAAAAAAAA
(1700637675.073353) can0 7E8#04410C1A18000000
(1700637675.161115) can0 7E0#0322128C00000000
(1700637675.163579) can0 7E8#0762128C00000C8F
(1700637675.252034) can0 7DF#02010CAAAAAAAAAA
(1700637675.253351) can0 7E8#04410C1B50000000
(1700637675.343227) can0 7E0#0322128C00000000
(1700637675.353413) can0 7E8#0762128C00000D0A
(1700637675.434162) can0 7DF#02010CAAAAAAAAAA
(1700637675.443350) can0 7E8#04410C1C6A000000
(1700637675.525357) can0 7E0#0322128C00000000
(1700637675.533730) can0 7E8#0762128C00000CD0
(1700637675.616274) can0 7DF#02010CAAAAAAAAAA
(1700637675.623354) can0 7E8#04410C1DB0000000
(1700637675.707494) can0 7E0#0322128C00000000
(1700637675.713671) can0 7E8#0762128C00000C8B
(1700637675.798423) can0 7DF#02010CAAAAAAAAAA
(1700637675.803520) can0 7E8#04410C1EE4000000
(1700637675.889563) can0 7E0#0322128C00000000
(1700637675.893552) can0 7E8#0762128C00000C41
(1700637675.980502) can0 7DF#02010CAAAAAAAAAA
(1700637675.983267) can0 7E8#04410C2038000000
(1700637676.071658) can0 7E0#0322128C00000000
(1700637676.083354) can0 7E8#0762128C00000C71
(1700637676.162568) can0 7DF#02010CAAAAAAAAAA
(1700637676.173254) can0 7E8#04410C217A000000
(1700637676.253765) can0 7E0#0322128C00000000
(1700637676.263358) can0 7E8#0762128C00000692
(1700637676.344706) can0 7DF#02010CAAAAAAAAAA
(1700637676.353247) can0 7E8#04410C217A000000
(1700637676.435883) can0 7E0#0322128C00000000
(1700637676.443347) can0 7E8#0762128C0000031E
(1700637676.526799) can0 7DF#02010CAAAAAAAAAA
(1700637676.533603) can0 7E8#04410C20EA000000
(1700637676.617984) can0 7E0#0322128C00000000
(1700637676.623355) can0 7E8#0762128C0000037F
(1700637676.708881) can0 7DF#02010CAAAAAAAAAA
(1700637676.713240) can0 7E8#04410C1D2A000000
(1700637676.800037) can0 7E0#0322128C00000000
(1700637676.803274) can0 7E8#0762128C00000322
(1700637676.890951) can0 7DF#02010CAAAAAAAAAA
(1700637676.893229) can0 7E8#04410C1B0A000000
(1700637676.982104) can0 7E0#0322128C00000000
(1700637676.983348) can0 7E8#0762128C00000287
(1700637677.073035) can0 7DF#02010CAAAAAAAAAA
(1700637677.083202) can0 7E8#04410C1930000000
(1700637677.164251) can0 7E0#0322128C00000000
(1700637677.173274) can0 7E8#0762128C0000046C
(1700637677.255141) can0 7DF#02010CAAAAAAAAAA
(1700637677.263204) can0 7E8#04410C1898000000
(1700637677.346354) can0 7E0#0322128C00000000
(1700637677.353353) can0 7E8#0762128C00000741
(1700637677.437239) can0 7DF#02010CAAAAAAAAAA
(1700637677.443198) can0 7E8#04410C1750000000
(1700637677.528434) can0 7E0#0322128C00000000
(1700637677.533353) can0 7E8#0762128C000007C6
(1700637677.619362) can0 7DF#02010CAAAAAAAAAA
(1700637677.623178) can0 7E8#04410C17AC000000
(1700637677.710521) can0 7E0#0322128C00000000
(1700637677.713232) can0 7E8#0762128C000007B5
(1700637677.801452) can0 7DF#02010CAAAAAAAAAA
(1700637677.803159) can0 7E8#04410C181E000000
(1700637677.892577) can0 7E0#0322128C00000000
(1700637677.903489) can0 7E8#0762128C000007DF
(1700637677.983555) can0 7DF#02010CAAAAAAAAAA
(1700637677.993150) can0 7E8#04410C1874000000
(1700637678.074702) can0 7E0#0322128C00000000
(1700637678.083229) can0 7E8#0762128C00000807
(1700637678.165656) can0 7DF#02010CAAAAAAAAAA
(1700637678.173143) can0 7E8#04410C18E4000000
(1700637678.256806) can0 7E0#0322128C00000000
(1700637678.263230) can0 7E8#0762128C0000081F
(1700637678.347728) can0 7DF#02010CAAAAAAAAAA
(1700637678.353352) can0 7E8#04410C18E4000000
(1700637678.438882) can0 7E0#0322128C00000000
(1700637678.443199) can0 7E8#0762128C0000086D
(1700637678.529815) can0 7DF#02010CAAAAAAAAAA
(1700637678.533122) can0 7E8#04410C193A000000
(1700637678.620983) can0 7E0#0322128C00000000
(1700637678.623177) can0 7E8#0762128C00000876
(1700637678.711903) can0 7DF#02010CAAAAAAAAAA
(1700637678.713128) can0 7E8#04410C19C4000000
(1700637678.803078) can0 7E0#0322128C00000000
(1700637678.813173) can0 7E8#0762128C00000725
(1700637678.894007) can0 7DF#02010CAAAAAAAAAA
(1700637678.903111) can0 7E8#04410C19FA000000
(1700637678.985178) can0 7E0#0322128C00000000
(1700637678.993159) can0 7E8#0762128C0000045B
(1700637679.076111) can0 7DF#02010CAAAAAAAAAA
(1700637679.083103) can0 7E8#04410C1A86000000
(1700637679.167336) can0 7E0#0322128C00000000
(1700637679.173153) can0 7E8#0762128C00000309
(1700637679.258203) can0 7DF#02010CAAAAAAAAAA
(1700637679.263100) can0 7E8#04410C1AC4000000
(1700637679.349350) can0 7E0#0322128C00000000
(1700637679.353145) can0 7E8#0762128C0000025D
(1700637679.440272) can0 7DF#02010CAAAAAAAAAA
(1700637679.443485) can0 7E8#04410C1AC0000000
(1700637679.531489) can0 7E0#0322128C00000000
(1700637679.533133) can0 7E8#0762128C0000021F
(1700637679.622350) can0 7DF#02010CAAAAAAAAAA
(1700637679.633131) can0 7E8#04410C1B0E000000
(1700637679.713551) can0 7E0#0322128C00000000
(1700637679.723123) can0 7E8#0762128C000001FC
(1700637679.804479) can0 7DF#02010CAAAAAAAAAA
(1700637679.813056) can0 7E8#04410C1B40000000
(1700637679.895599) can0 7E0#0322128C00000000
(1700637679.903112) can0 7E8#0762128C000001DB
(1700637679.986545) can0 7DF#02010CAAAAAAAAAA
(1700637679.993046) can0 7E8#04410C1B42000000
(1700637680.077647) can0 7E0#0322128C00000000
(1700637680.083353) can0 7E8#0762128C00000000
(1700637680.168538) can0 7DF#02010CAAAAAAAAAA
(1700637680.173083) can0 7E8#04410C1B28000000
(1700637680.259453) can0 7E0#0322128C00000000
(1700637680.263131) can0 7E8#0762128C00000000
(1700637680.350350) can0 7DF#02010CAAAAAAAAAA
(1700637680.353023) can0 7E8#04410C1B28000000
(1700637680.441153) can0 7E0#0322128C00000000
(1700637680.443254) can0 7E8#0762128C00000000
(1700637680.532065) can0 7DF#02010CAAAAAAAAAA
(1700637680.622889) can0 7E0#0322128C00000000
(1700637680.633102) can0 7E8#0762128C00000000
(1700637680.713786) can0 7DF#02010CAAAAAAAAAA
(1700637680.723011) can0 7E8#04410C1B5A000000
(1700637680.804612) can0 7E0#0322128C00000000
(1700637680.813078) can0 7E8#0762128C00000000
(1700637680.895515) can0 7DF#02010CAAAAAAAAAA
(1700637680.903150) can0 7E8#04410C1B66000000
(1700637680.986357) can0 7E0#0322128C00000000
(1700637680.993078) can0 7E8#0762128C00000000
(1700637681.077233) can0 7DF#02010CAAAAAAAAAA
(1700637681.082990) can0 7E8#04410C1B54000000
(1700637681.168062) can0 7E0#0322128C00000000
(1700637681.173054) can0 7E8#0762128C00000000
(1700637681.258927) can0 7DF#02010CAAAAAAAAAA
(1700637681.262980) can0 7E8#04410C1B52000000
(1700637681.349788) can0 7E0#0322128C00000000
(1700637681.353054) can0 7E8#0762128C00000000
(1700637681.440675) can0 7DF#02010CAAAAAAAAAA
(1700637681.442953) can0 7E8#04410C1B60000000
(1700637681.531562) can0 7E0#0322128C00000000
(1700637681.533029) can0 7E8#0762128C00000000
(1700637681.622456) can0 7DF#02010CAAAAAAAAAA
(1700637681.633003) can0 7E8#04410C1B56000000
(1700637681.713275) can0 7E0#0322128C00000000
(1700637681.723035) can0 7E8#0762128C00000000
(1700637681.804168) can0 7DF#02010CAAAAAAAAAA
(1700637681.812955) can0 7E8#04410C18BC000000
(1700637681.895018) can0 7E0#0322128C00000000
(1700637681.903018) can0 7E8#0762128C0000027E
(1700637681.985953) can0 7DF#02010CAAAAAAAAAA
(1700637681.992916) can0 7E8#04410C156A000000
(1700637682.077127) can0 7E0#0322128C00000000
(1700637682.082996) can0 7E8#0762128C00000286
(1700637682.168061) can0 7DF#02010CAAAAAAAAAA
(1700637682.173142) can0 7E8#04410C1322000000
(1700637682.259225) can0 7E0#0322128C00000000
(1700637682.262976) can0 7E8#0762128C0000028A
(1700637682.350118) can0 7DF#02010CAAAAAAAAAA
(1700637682.352913) can0 7E8#04410C1322000000
(1700637682.441357) can0 7E0#0322128C00000000
(1700637682.442978) can0 7E8#0762128C0000027C
(1700637682.532233) can0 7DF#02010CAAAAAAAAAA
(1700637682.543102) can0 7E8#04410C11AA000000
(1700637682.623435) can0 7E0#0322128C00000000
(1700637682.632958) can0 7E8#0762128C00000284
(1700637682.714351) can0 7DF#02010CAAAAAAAAAA
(1700637682.722888) can0 7E8#04410C1072000000
(1700637682.805552) can0 7E0#0322128C00000000
(1700637682.812960) can0 7E8#0762128C000002AB
(1700637682.896476) can0 7DF#02010CAAAAAAAAAA
(1700637682.902880) can0 7E8#04410C0FB4000000
(1700637682.987603) can0 7E0#0322128C00000000
(1700637682.992980) can0 7E8#0762128C000002BA
(1700637683.078553) can0 7DF#02010CAAAAAAAAAA
(1700637683.082871) can0 7E8#04410C0FD4000000
(1700637683.169692) can0 7E0#0322128C00000000
(1700637683.172921) can0 7E8#0762128C00000270
(1700637683.260609) can0 7DF#02010CAAAAAAAAAA
(1700637683.262860) can0 7E8#04410C11B6000000
(1700637683.351774) can0 7E0#0322128C00000000
(1700637683.362909) can0 7E8#0762128C00000239
(1700637683.442729) can0 7DF#02010CAAAAAAAAAA
(1700637683.452849) can0 7E8#04410C1550000000
(1700637683.533894) can0 7E0#0322128C00000000
(1700637683.542908) can0 7E8#0762128C00000232
(1700637683.624803) can0 7DF#02010CAAAAAAAAAA
(1700637683.632828) can0 7E8#04410C151A000000
(1700637683.715984) can0 7E0#0322128C00000000
(1700637683.722910) can0 7E8#0762128C00000338
(1700637683.806885) can0 7DF#02010CAAAAAAAAAA
(1700637683.812831) can0 7E8#04410C14D0000000
(1700637683.898052) can0 7E0#0322128C00000000
(1700637683.903103) can0 7E8#0762128C00000700
(1700637683.988952) can0 7DF#02010CAAAAAAAAAA
(1700637683.992828) can0 7E8#04410C149C000000
(1700637684.080108) can0 7E0#0322128C00000000
(1700637684.082878) can0 7E8#0762128C00000BE6
(1700637684.171090) can0 7DF#02010CAAAAAAAAAA
(1700637684.172810) can0 7E8#04410C14D8000000
(1700637684.262239) can0 7E0#0322128C00000000
(1700637684.272853) can0 7E8#0762128C00000CB3
(1700637684.353175) can0 7DF#02010CAAAAAAAAAA
(1700637684.362791) can0 7E8#04410C154C000000
(1700637684.444401) can0 7E0#0322128C00000000
(1700637684.452853) can0 7E8#0762128C00000B65
(1700637684.535354) can0 7DF#02010CAAAAAAAAAA
(1700637684.542780) can0 7E8#04410C154C000000
(1700637684.626544) can0 7E0#0322128C00000000
(1700637684.632853) can0 7E8#0762128C00000BAC
(1700637684.717482) can0 7DF#02010CAAAAAAAAAA
(1700637684.722777) can0 7E8#04410C1580000000
(1700637684.808618) can0 7E0#0322128C00000000
(1700637684.812829) can0 7E8#0762128C000008AC
(1700637684.899555) can0 7DF#02010CAAAAAAAAAA
(1700637684.902756) can0 7E8#04410C158C000000
(1700637684.990728) can0 7E0#0322128C00000000
(1700637684.992828) can0 7E8#0762128C000004E1
(1700637685.081637) can0 7DF#02010CAAAAAAAAAA
(1700637685.082775) can0 7E8#04410C15C8000000
(1700637685.172796) can0 7E0#0322128C00000000
(1700637685.183183) can0 7E8#0762128C00000377
(1700637685.263744) can0 7DF#02010CAAAAAAAAAA
(1700637685.272744) can0 7E8#04410C15FA000000
(1700637685.354906) can0 7E0#0322128C00000000
(1700637685.362806) can0 7E8#0762128C000002AF
(1700637685.445828) can0 7DF#02010CAAAAAAAAAA
(1700637685.452890) can0 7E8#04410C158A000000
(1700637685.537006) can0 7E0#0322128C00000000
(1700637685.542988) can0 7E8#0762128C00000257
(1700637685.627924) can0 7DF#02010CAAAAAAAAAA
(1700637685.632727) can0 7E8#04410C1552000000
(1700637685.719083) can0 7E0#0322128C00000000
(1700637685.722776) can0 7E8#0762128C0000021D
(1700637685.809988) can0 7DF#02010CAAAAAAAAAA
(1700637685.812704) can0 7E8#04410C159E000000
(1700637685.901134) can0 7E0#0322128C00000000
(1700637685.902774) can0 7E8#0762128C000001EF
(1700637685.992048) can0 7DF#02010CAAAAAAAAAA
(1700637686.002999) can0 7E8#04410C1568000000
(1700637686.083228) can0 7E0#0322128C00000000
(1700637686.092759) can0 7E8#0762128C000001D8
(1700637686.174167) can0 7DF#02010CAAAAAAAAAA
(1700637686.182711) can0 7E8#04410C1580000000
(1700637686.265351) can0 7E0#0322128C00000000
(1700637686.272759) can0 7E8#0762128C000001DD
(1700637686.356230) can0 7DF#02010CAAAAAAAAAA
(1700637686.362677) can0 7E8#04410C14F2000000
(1700637686.447402) can0 7E0#0322128C00000000
(1700637686.453034) can0 7E8#0762128C000001EE
(1700637686.538363) can0 7DF#02010CAAAAAAAAAA
(1700637686.542671) can0 7E8#04410C14F2000000
(1700637686.629500) can0 7E0#0322128C00000000
(1700637686.632726) can0 7E8#0762128C0000028A
(1700637686.720434) can0 7DF#02010CAAAAAAAAAA
(1700637686.722658) can0 7E8#04410C1512000000
(1700637686.811591) can0 7E0#0322128C00000000
(1700637686.812735) can0 7E8#0762128C00000604
(1700637686.902523) can0 7DF#02010CAAAAAAAAAA
(1700637686.912787) can0 7E8#04410C155E000000
(1700637686.993663) can0 7E0#0322128C00000000
(1700637687.002711) can0 7E8#0762128C00000B53
(1700637687.084577) can0 7DF#02010CAAAAAAAAAA
(1700637687.092642) can0 7E8#04410C1550000000
(1700637687.175784) can0 7E0#0322128C00000000
(1700637687.182928) can0 7E8#0762128C00000CD7
(1700637687.266702) can0 7DF#02010CAAAAAAAAAA
(1700637687.272632) can0 7E8#04410C1558000000
(1700637687.357870) can0 7E0#0322128C00000000
(1700637687.362703) can0 7E8#0762128C00000E40
(1700637687.448785) can0 7DF#02010CAAAAAAAAAA
(1700637687.452628) can0 7E8#04410C1548000000
(1700637687.539982) can0 7E0#0322128C00000000
(1700637687.542680) can0 7E8#0762128C00000E7F
(1700637687.630887) can0 7DF#02010CAAAAAAAAAA
(1700637687.632829) can0 7E8#04410C1598000000
(1700637687.722061) can0 7E0#0322128C00000000
(1700637687.732660) can0 7E8#0762128C00000EEE
(1700637687.812978) can0 7DF#02010CAAAAAAAAAA
(1700637687.822606) can0 7E8#04410C15C8000000
(1700637687.904163) can0 7E0#0322128C00000000
(1700637687.912861) can0 7E8#0762128C00000F92
(1700637687.995077) can0 7DF#02010CAAAAAAAAAA
(1700637688.002644) can0 7E8#04410C1610000000
(1700637688.086351) can0 7E0#0322128C00000000
(1700637688.092650) can0 7E8#0762128C0000112F
(1700637688.177212) can0 7DF#02010CAAAAAAAAAA
(1700637688.182604) can0 7E8#04410C1660000000
(1700637688.268476) can0 7E0#0322128C00000000
(1700637688.273045) can0 7E8#0762128C0000122C
(1700637688.359350) can0 7DF#02010CAAAAAAAAAA
(1700637688.362577) can0 7E8#04410C16CE000000
(1700637688.450580) can0 7E0#0322128C00000000
(1700637688.452627) can0 7E8#0762128C0000135E
(1700637688.541558) can0 7DF#02010CAAAAAAAAAA
(1700637688.542576) can0 7E8#04410C16CE000000
(1700637688.632757) can0 7E0#0322128C00000000
(1700637688.642613) can0 7E8#0762128C000014C2
(1700637688.723703) can0 7DF#02010CAAAAAAAAAA
(1700637688.732557) can0 7E8#04410C1732000000
(1700637688.814928) can0 7E0#0322128C00000000
(1700637688.822602) can0 7E8#0762128C000016D3
(1700637688.905854) can0 7DF#02010CAAAAAAAAAA
(1700637688.912558) can0 7E8#04410C178E000000
(1700637688.997106) can0 7E0#0322128C00000000
(1700637689.002603) can0 7E8#0762128C00001736
(1700637689.088010) can0 7DF#02010CAAAAAAAAAA
(1700637689.092728) can0 7E8#04410C17E8000000
(1700637689.179218) can0 7E0#0322128C00000000
(1700637689.182606) can0 7E8#0762128C00001818
(1700637689.270143) can0 7DF#02010CAAAAAAAAAA
(1700637689.272746) can0 7E8#04410C1852000000
(1700637689.361356) can0 7E0#0322128C00000000
(1700637689.362601) can0 7E8#0762128C0000183C
(1700637689.452275) can0 7DF#02010CAAAAAAAAAA
(1700637689.462535) can0 7E8#04410C18D6000000
(1700637689.543533) can0 7E0#0322128C00000000
(1700637689.552577) can0 7E8#0762128C000018D2
(1700637689.634458) can0 7DF#02010CAAAAAAAAAA
(1700637689.642520) can0 7E8#04410C194C000000
(1700637689.725644) can0 7E0#0322128C00000000
(1700637689.732558) can0 7E8#0762128C000018E9
(1700637689.816598) can0 7DF#02010CAAAAAAAAAA
(1700637689.822660) can0 7E8#04410C19DC000000
(1700637689.907826) can0 7E0#0322128C00000000
(1700637689.912557) can0 7E8#0762128C0000197F
(1700637689.998731) can0 7DF#02010CAAAAAAAAAA
(1700637690.002504) can0 7E8#04410C1A86000000
(1700637690.089958) can0 7E0#0322128C00000000
(1700637690.092556) can0 7E8#0762128C0000197C
(1700637690.180878) can0 7DF#02010CAAAAAAAAAA
(1700637690.182748) can0 7E8#04410C1AAA000000
(1700637690.272107) can0 7E0#0322128C00000000
(1700637690.282557) can0 7E8#0762128C00001A09
(1700637690.363018) can0 7DF#02010CAAAAAAAAAA
(1700637690.372704) can0 7E8#04410C1B50000000
(1700637690.454227) can0 7E0#0322128C00000000
(1700637690.462557) can0 7E8#0762128C00001A00
(1700637690.545145) can0 7DF#02010CAAAAAAAAAA
(1700637690.552628) can0 7E8#04410C1B50000000
(1700637690.636351) can0 7E0#0322128C00000000
(1700637690.642862) can0 7E8#0762128C00001A9E
(1700637690.727358) can0 7DF#02010CAAAAAAAAAA
(1700637690.732480) can0 7E8#04410C1BD0000000
(1700637690.818538) can0 7E0#0322128C00000000
(1700637690.822518) can0 7E8#0762128C00001AE1
(1700637690.909481) can0 7DF#02010CAAAAAAAAAA
(1700637690.912456) can0 7E8#04410C1C64000000
(1700637691.000679) can0 7E0#0322128C00000000
(1700637691.002504) can0 7E8#0762128C00001B17
(1700637691.091612) can0 7DF#02010CAAAAAAAAAA
(1700637691.102454) can0 7E8#04410C1CAC000000
(1700637691.182836) can0 7E0#0322128C00000000
(1700637691.192744) can0 7E8#0762128C00001BAB
(1700637691.273769) can0 7DF#02010CAAAAAAAAAA
(1700637691.282430) can0 7E8#04410C1D3A000000
(1700637691.364998) can0 7E0#0322128C00000000
(1700637691.372487) can0 7E8#0762128C00001C4F
(1700637691.455918) can0 7DF#02010CAAAAAAAAAA
(1700637691.462428) can0 7E8#04410C1DD8000000
(1700637691.547120) can0 7E0#0322128C00000000
(1700637691.552512) can0 7E8#0762128C00000000
(1700637691.638014) can0 7DF#02010CAAAAAAAAAA
(1700637691.642429) can0 7E8#04410C1F24000000
(1700637691.728869) can0 7E0#0322128C00000000
(1700637691.732648) can0 7E8#0762128C00000000
(1700637691.819736) can0 7DF#02010CAAAAAAAAAA
(1700637691.822426) can0 7E8#04410C1DC6000000
(1700637691.910601) can0 7E0#0322128C00000000
(1700637691.922631) can0 7E8#0762128C00000000
(1700637692.001504) can0 7DF#02010CAAAAAAAAAA
(1700637692.002425) can0 7E8#04410C1C3E000000
(1700637692.092351) can0 7E0#0322128C00000000
(1700637692.102480) can0 7E8#0762128C00000000
(1700637692.183154) can0 7DF#02010CAAAAAAAAAA
(1700637692.192494) can0 7E8#04410C17FA000000
(1700637692.274018) can0 7E0#0322128C00000000
(1700637692.282459) can0 7E8#0762128C00000000
(1700637692.364918) can0 7DF#02010CAAAAAAAAAA
(1700637692.372556) can0 7E8#04410C13D0000000
(1700637692.455777) can0 7E0#0322128C00000000
(1700637692.462453) can0 7E8#0762128C00000000
(1700637692.546660) can0 7DF#02010CAAAAAAAAAA
(1700637692.552348) can0 7E8#04410C13D0000000
(1700637692.637526) can0 7E0#0322128C00000000
(1700637692.642458) can0 7E8#0762128C00000000
(1700637692.728402) can0 7DF#02010CAAAAAAAAAA
(1700637692.732353) can0 7E8#04410C0FA6000000
(1700637692.819227) can0 7E0#0322128C00000000
(1700637692.822426) can0 7E8#0762128C00000000
(1700637692.910130) can0 7DF#02010CAAAAAAAAAA
(1700637692.912351) can0 7E8#04410C0B70000000
(1700637693.000962) can0 7E0#0322128C00000000
(1700637693.002410) can0 7E8#0762128C00000000
(1700637693.091828) can0 7DF#02010CAAAAAAAAAA
(1700637693.102418) can0 7E8#04410C0854000000
(1700637693.182662) can0 7E0#0322128C00000000
(1700637693.192460) can0 7E8#0762128C00000000
(1700637693.273578) can0 7DF#02010CAAAAAAAAAA
(1700637693.282353) can0 7E8#04410C055C000000
(1700637693.364454) can0 7E0#0322128C00000000
(1700637693.372351) can0 7E8#0762128C00000000
(1700637693.455351) can0 7DF#02010CAAAAAAAAAA
(1700637693.462268) can0 7E8#04410C036C000000
(1700637693.546147) can0 7E0#0322128C00000000
(1700637693.552349) can0 7E8#0762128C00000000
(1700637693.637039) can0 7DF#02010CAAAAAAAAAA
(1700637693.642261) can0 7E8#04410C03F6000000
(1700637693.727880) can0 7E0#0322128C00000000
(1700637693.732351) can0 7E8#0762128C00000000
(1700637693.818758) can0 7DF#02010CAAAAAAAAAA
(1700637693.822246) can0 7E8#04410C0170000000
(1700637693.909616) can0 7E0#0322128C00000000
(1700637693.912348) can0 7E8#0762128C00000000
(1700637694.000523) can0 7DF#02010CAAAAAAAAAA
(1700637694.002232) can0 7E8#04410C014C000000
(1700637694.091351) can0 7E0#0322128C00000000
(1700637694.102349) can0 7E8#0762128C00000000
(1700637694.182241) can0 7DF#02010CAAAAAAAAAA
(1700637694.192251) can0 7E8#04410C009E000000
(1700637694.273078) can0 7E0#0322128C00000000
(1700637694.282352) can0 7E8#0762128C00000000
(1700637694.363957) can0 7DF#02010CAAAAAAAAAA
(1700637694.372237) can0 7E8#04410C00C8000000
(1700637694.454826) can0 7E0#0322128C00000000
(1700637694.462353) can0 7E8#0762128C00000000
(1700637694.545708) can0 7DF#02010CAAAAAAAAAA
(1700637694.552223) can0 7E8#04410C00C8000000
(1700637694.636557) can0 7E0#0322128C00000000
(1700637694.642351) can0 7E8#0762128C00000000
(1700637694.727455) can0 7DF#02010CAAAAAAAAAA
(1700637694.732229) can0 7E8#04410C0000000000
(1700637694.818271) can0 7E0#0322128C00000000
(1700637694.822277) can0 7E8#0762128C00000000
(1700637694.909167) can0 7DF#02010CAAAAAAAAAA
(1700637694.912225) can0 7E8#04410C0000000000
(1700637695.000004) can0 7E0#0322128C00000000
(1700637695.002274) can0 7E8#0762128C00000000
(1700637695.090883) can0 7DF#02010CAAAAAAAAAA
(1700637695.092199) can0 7E8#04410C0000000000
(1700637695.181713) can0 7E0#0322128C00000000
(1700637695.192249) can0 7E8#0762128C00000000
(1700637695.272629) can0 7DF#02010CAAAAAAAAAA
(1700637695.282167) can0 7E8#04410C0000000000
(1700637695.363509) can0 7E0#0322128C00000000
(1700637695.372239) can0 7E8#0762128C00000000
(1700637695.454395) can0 7DF#02010CAAAAAAAAAA
(1700637695.462176) can0 7E8#04410C0000000000
(1700637695.545233) can0 7E0#0322128C00000000
(1700637695.552221) can0 7E8#0762128C00000000
(1700637695.636111) can0 7DF#02010CAAAAAAAAAA
(1700637695.642147) can0 7E8#04410C0000000000
(1700637695.726956) can0 7E0#0322128C00000000
(1700637695.732208) can0 7E8#0762128C00000000
(1700637695.817857) can0 7DF#02010CAAAAAAAAAA
(1700637695.822145) can0 7E8#04410C0000000000
(1700637695.908725) can0 7E0#0322128C00000000
(1700637695.912204) can0 7E8#0762128C00000000
(1700637695.999577) can0 7DF#02010CAAAAAAAAAA
(1700637696.002152) can0 7E8#04410C00C4000000
(1700637696.090463) can0 7E0#0322128C00000000
(1700637696.092206) can0 7E8#0762128C00000000
(1700637696.181360) can0 7DF#02010CAAAAAAAAAA
(1700637696.192941) can0 7E8#04410C02D0000000
(1700637696.272170) can0 7E0#0322128C00000000
(1700637696.282204) can0 7E8#0762128C00000000
(1700637696.363034) can0 7DF#02010CAAAAAAAAAA
(1700637696.372112) can0 7E8#04410C02F6000000
(1700637696.453878) can0 7E0#0322128C00000000
(1700637696.462203) can0 7E8#0762128C00000000
(1700637696.544761) can0 7DF#02010CAAAAAAAAAA
(1700637696.552347) can0 7E8#04410C02F6000000
(1700637696.635600) can0 7E0#0322128C00000000
(1700637696.642177) can0 7E8#0762128C00000000
(1700637696.726531) can0 7DF#02010CAAAAAAAAAA
(1700637696.732202) can0 7E8#04410C02F6000000
(1700637696.817356) can0 7E0#0322128C00000000
(1700637696.822180) can0 7E8#0762128C00000000
(1700637696.908229) can0 7DF#02010CAAAAAAAAAA
(1700637696.912101) can0 7E8#04410C04D8000000
(1700637696.999078) can0 7E0#0322128C00000000
(1700637697.002161) can0 7E8#0762128C00000000
(1700637697.089982) can0 7DF#02010CAAAAAAAAAA
(1700637697.092077) can0 7E8#04410C10C2000000
(1700637697.180810) can0 7E0#0322128C00000000
(1700637697.182150) can0 7E8#0762128C00000000
(1700637697.271729) can0 7DF#02010CAAAAAAAAAA
(1700637697.282080) can0 7E8#04410C1A52000000
(1700637697.362576) can0 7E0#0322128C00000000
(1700637697.372120) can0 7E8#0762128C00000000
(1700637697.453495) can0 7DF#02010CAAAAAAAAAA
(1700637697.462050) can0 7E8#04410C1A5C000000
(1700637697.544358) can0 7E0#0322128C00000000
(1700637697.552350) can0 7E8#0762128C00000000
(1700637697.635207) can0 7DF#02010CAAAAAAAAAA
(1700637697.642037) can0 7E8#04410C1998000000
(1700637697.726042) can0 7E0#0322128C00000000
(1700637697.732102) can0 7E8#0762128C00000000
(1700637697.816910) can0 7DF#02010CAAAAAAAAAA
(1700637697.822017) can0 7E8#04410C1932000000
(1700637697.907780) can0 7E0#0322128C00000000
(1700637697.912099) can0 7E8#0762128C00000000
(1700637697.998636) can0 7DF#02010CAAAAAAAAAA
(1700637698.002020) can0 7E8#04410C1930000000
(1700637698.089521) can0 7E0#0322128C00000000
(1700637698.092100) can0 7E8#0762128C00000000
(1700637698.180383) can0 7DF#02010CAAAAAAAAAA
(1700637698.182502) can0 7E8#04410C1922000000
(1700637698.271204) can0 7E0#0322128C00000000
(1700637698.282079) can0 7E8#0762128C00000000
(1700637698.362104) can0 7DF#02010CAAAAAAAAAA
(1700637698.371991) can0 7E8#04410C18E2000000
(1700637698.452954) can0 7E0#0322128C00000000
(1700637698.462268) can0 7E8#0762128C00000000
(1700637698.543855) can0 7DF#02010CAAAAAAAAAA
(1700637698.551980) can0 7E8#04410C18E2000000
(1700637698.634703) can0 7E0#0322128C00000000
(1700637698.642418) can0 7E8#0762128C00000000
(1700637698.725555) can0 7DF#02010CAAAAAAAAAA
(1700637698.731978) can0 7E8#04410C18C2000000
(1700637698.816454) can0 7E0#0322128C00000000
(1700637698.822203) can0 7E8#0762128C00000000
(1700637698.907362) can0 7DF#02010CAAAAAAAAAA
(1700637698.911979) can0 7E8#04410C18A0000000
(1700637698.998131) can0 7E0#0322128C00000000
(1700637699.002029) can0 7E8#0762128C00000000
(1700637699.088997) can0 7DF#02010CAAAAAAAAAA
(1700637699.091954) can0 7E8#04410C188C000000
(1700637699.179845) can0 7E0#0322128C00000000
(1700637699.182034) can0 7E8#0762128C00000000
(1700637699.270730) can0 7DF#02010CAAAAAAAAAA
(1700637699.281955) can0 7E8#04410C1854000000
(1700637699.361578) can0 7E0#0322128C00000000
(1700637699.372010) can0 7E8#0762128C00000000
(1700637699.452507) can0 7DF#02010CAAAAAAAAAA
(1700637699.461957) can0 7E8#04410C183C000000
(1700637699.543358) can0 7E0#0322128C00000000
(1700637699.551997) can0 7E8#0762128C00000000
(1700637699.634179) can0 7DF#02010CAAAAAAAAAA
(1700637699.641930) can0 7E8#04410C17E6000000
(1700637699.725034) can0 7E0#0322128C00000000
(1700637699.732204) can0 7E8#0762128C00000000
(1700637699.815926) can0 7DF#02010CAAAAAAAAAA
(1700637699.821919) can0 7E8#04410C17E0000000
(1700637699.906791) can0 7E0#0322128C00000000
(1700637699.911977) can0 7E8#0762128C00000000
(1700637699.997677) can0 7DF#02010CAAAAAAAAAA
(1700637700.001902) can0 7E8#04410C17B0000000
(1700637700.088555) can0 7E0#0322128C00000000
(1700637700.091977) can0 7E8#0762128C00000000
(1700637700.179415) can0 7DF#02010CAAAAAAAAAA
(1700637700.181890) can0 7E8#04410C178A000000
(1700637700.270253) can0 7E0#0322128C00000000
(1700637700.271975) can0 7E8#0762128C00000000
(1700637700.361142) can0 7DF#02010CAAAAAAAAAA
(1700637700.371877) can0 7E8#04410C1764000000
(1700637700.451991) can0 7E0#0322128C00000000
(1700637700.461951) can0 7E8#0762128C00000000
(1700637700.542882) can0 7DF#02010CAAAAAAAAAA
(1700637700.551882) can0 7E8#04410C1764000000
(1700637700.633707) can0 7E0#0322128C00000000
(1700637700.641952) can0 7E8#0762128C00000000
(1700637700.724599) can0 7DF#02010CAAAAAAAAAA
(1700637700.732084) can0 7E8#04410C1730000000
(1700637700.815481) can0 7E0#0322128C00000000
(1700637700.821927) can0 7E8#0762128C00000000
(1700637700.906352) can0 7DF#02010CAAAAAAAAAA
(1700637700.911852) can0 7E8#04410C170E000000
(1700637700.997204) can0 7E0#0322128C00000000
(1700637701.001921) can0 7E8#0762128C00000000
(1700637701.088077) can0 7DF#02010CAAAAAAAAAA
(1700637701.091850) can0 7E8#04410C16DC000000
(1700637701.178941) can0 7E0#0322128C00000000
(1700637701.181915) can0 7E8#0762128C00000000
(1700637701.269807) can0 7DF#02010CAAAAAAAAAA
(1700637701.281854) can0 7E8#04410C16B4000000
(1700637701.360656) can0 7E0#0322128C00000000
(1700637701.361910) can0 7E8#0762128C00000000
(1700637701.451557) can0 7DF#02010CAAAAAAAAAA
(1700637701.461824) can0 7E8#04410C168A000000
(1700637701.542418) can0 7E0#0322128C00000000
(1700637701.551899) can0 7E8#0762128C00000000
(1700637701.633256) can0 7DF#02010CAAAAAAAAAA
(1700637701.641807) can0 7E8#04410C1652000000
(1700637701.724110) can0 7E0#0322128C00000000
(1700637701.731882) can0 7E8#0762128C000001F6
(1700637701.815015) can0 7DF#02010CAAAAAAAAAA
(1700637701.821796) can0 7E8#04410C1658000000
(1700637701.906174) can0 7E0#0322128C00000000
(1700637701.911861) can0 7E8#0762128C000001B8
(1700637701.997102) can0 7DF#02010CAAAAAAAAAA
(1700637702.001779) can0 7E8#04410C161E000000
(1700637702.088251) can0 7E0#0322128C00000000
(1700637702.091849) can0 7E8#0762128C00000000
(1700637702.179162) can0 7DF#02010CAAAAAAAAAA
(1700637702.181767) can0 7E8#04410C15C2000000
(1700637702.270006) can0 7E0#0322128C00000000
(1700637702.271876) can0 7E8#0762128C00000000
(1700637702.360878) can0 7DF#02010CAAAAAAAAAA
(1700637702.371774) can0 7E8#04410C15B4000000
(1700637702.451729) can0 7E0#0322128C00000000
(1700637702.461851) can0 7E8#0762128C00000000
(1700637702.542629) can0 7DF#02010CAAAAAAAAAA
(1700637702.551760) can0 7E8#04410C15B4000000
(1700637702.633510) can0 7E0#0322128C00000000
(1700637702.641828) can0 7E8#0762128C00000000
(1700637702.724388) can0 7DF#02010CAAAAAAAAAA
(1700637702.731748) can0 7E8#04410C158E000000
(1700637702.815228) can0 7E0#0322128C00000000
(1700637702.821833) can0 7E8#0762128C00000000
(1700637702.906101) can0 7DF#02010CAAAAAAAAAA
(1700637702.911738) can0 7E8#04410C1558000000
(1700637702.996957) can0 7E0#0322128C00000000
(1700637703.001798) can0 7E8#0762128C000001E7
(1700637703.087870) can0 7DF#02010CAAAAAAAAAA
(1700637703.091729) can0 7E8#04410C1310000000
(1700637703.179045) can0 7E0#0322128C00000000
(1700637703.181780) can0 7E8#0762128C0000036A
(1700637703.269978) can0 7DF#02010CAAAAAAAAAA
(1700637703.271723) can0 7E8#04410C1094000000
(1700637703.361148) can0 7E0#0322128C00000000
(1700637703.371778) can0 7E8#0762128C0000040C
(1700637703.452104) can0 7DF#02010CAAAAAAAAAA
(1700637703.461728) can0 7E8#04410C0FE2000000
(1700637703.543251) can0 7E0#0322128C00000000
(1700637703.551855) can0 7E8#0762128C00000418
(1700637703.634156) can0 7DF#02010CAAAAAAAAAA
(1700637703.641900) can0 7E8#04410C0E9C000000
(1700637703.725352) can0 7E0#0322128C00000000
(1700637703.731758) can0 7E8#0762128C00000453
(1700637703.816237) can0 7DF#02010CAAAAAAAAAA
(1700637703.821702) can0 7E8#04410C0DF2000000
(1700637703.907451) can0 7E0#0322128C00000000
(1700637703.911743) can0 7E8#0762128C0000048B
(1700637703.998357) can0 7DF#02010CAAAAAAAAAA
(1700637704.001681) can0 7E8#04410C0D20000000
(1700637704.089527) can0 7E0#0322128C00000000
(1700637704.091725) can0 7E8#0762128C000004B9
(1700637704.180461) can0 7DF#02010CAAAAAAAAAA
(1700637704.181661) can0 7E8#04410C0C60000000
(1700637704.271609) can0 7E0#0322128C00000000
(1700637704.281729) can0 7E8#0762128C00000523
(1700637704.362577) can0 7DF#02010CAAAAAAAAAA
(1700637704.371660) can0 7E8#04410C0BD0000000
(1700637704.453737) can0 7E0#0322128C00000000
(1700637704.461728) can0 7E8#0762128C000006BF
(1700637704.544644) can0 7DF#02010CAAAAAAAAAA
(1700637704.551637) can0 7E8#04410C0BD0000000
(1700637704.635805) can0 7E0#0322128C00000000
(1700637704.641703) can0 7E8#0762128C00000E67
(1700637704.726728) can0 7DF#02010CAAAAAAAAAA
(1700637704.731628) can0 7E8#04410C0D22000000
(1700637704.817877) can0 7E0#0322128C00000000
(1700637704.821703) can0 7E8#0762128C00000ED2
(1700637704.908828) can0 7DF#02010CAAAAAAAAAA
(1700637704.911848) can0 7E8#04410C151E000000
(1700637705.000002) can0 7E0#0322128C00000000
(1700637705.001890) can0 7E8#0762128C00000DBE
(1700637705.090953) can0 7DF#02010CAAAAAAAAAA
(1700637705.101625) can0 7E8#04410C233E000000
(1700637705.182132) can0 7E0#0322128C00000000
(1700637705.191668) can0 7E8#0762128C00000DD6
(1700637705.273058) can0 7DF#02010CAAAAAAAAAA
(1700637705.281702) can0 7E8#04410C30D4000000
(1700637705.364239) can0 7E0#0322128C00000000
(1700637705.371660) can0 7E8#0762128C0000036F
(1700637705.455154) can0 7DF#02010CAAAAAAAAAA
(1700637705.461641) can0 7E8#04410C3C68000000
(1700637705.546358) can0 7E0#0322128C00000000
(1700637705.551652) can0 7E8#0762128C00000000
(1700637705.637209) can0 7DF#02010CAAAAAAAAAA
(1700637705.641649) can0 7E8#04410C37D8000000
(1700637705.728064) can0 7E0#0322128C00000000
(1700637705.731827) can0 7E8#0762128C00000000
(1700637705.818922) can0 7DF#02010CAAAAAAAAAA
(1700637705.821911) can0 7E8#04410C31A0000000
(1700637705.909767) can0 7E0#0322128C00000000
(1700637705.921651) can0 7E8#0762128C00000000
(1700637706.000662) can0 7DF#02010CAAAAAAAAAA
(1700637706.001638) can0 7E8#04410C2BDC000000
(1700637706.091549) can0 7E0#0322128C00000000
(1700637706.101654) can0 7E8#0762128C00000000
(1700637706.182402) can0 7DF#02010CAAAAAAAAAA
(1700637706.191560) can0 7E8#04410C267A000000
(1700637706.273229) can0 7E0#0322128C00000000
(1700637706.281703) can0 7E8#0762128C00000000
(1700637706.364135) can0 7DF#02010CAAAAAAAAAA
(1700637706.371676) can0 7E8#04410C2144000000
(1700637706.454976) can0 7E0#0322128C00000000
(1700637706.461659) can0 7E8#0762128C00000000
(1700637706.545859) can0 7DF#02010CAAAAAAAAAA
(1700637706.551556) can0 7E8#04410C2144000000
(1700637706.636707) can0 7E0#0322128C00000000
(1700637706.641650) can0 7E8#0762128C00000331
(1700637706.727622) can0 7DF#02010CAAAAAAAAAA
(1700637706.731555) can0 7E8#04410C1C7E000000
(1700637706.818786) can0 7E0#0322128C00000000
(1700637706.821630) can0 7E8#0762128C00000549
(1700637706.909707) can0 7DF#02010CAAAAAAAAAA
(1700637706.921537) can0 7E8#04410C19BC000000
(1700637707.000867) can0 7E0#0322128C00000000
(1700637707.011578) can0 7E8#0762128C00000C00
(1700637707.091802) can0 7DF#02010CAAAAAAAAAA
(1700637707.101536) can0 7E8#04410C1AB0000000
(1700637707.182962) can0 7E0#0322128C00000000
(1700637707.191561) can0 7E8#0762128C00000E04
(1700637707.273887) can0 7DF#02010CAAAAAAAAAA
(1700637707.281520) can0 7E8#04410C1DA4000000
(1700637707.365054) can0 7E0#0322128C00000000
(1700637707.371660) can0 7E8#0762128C00000F63
(1700637707.455996) can0 7DF#02010CAAAAAAAAAA
(1700637707.461701) can0 7E8#04410C1AC6000000
(1700637707.547234) can0 7E0#0322128C00000000
(1700637707.551559) can0 7E8#0762128C0000113B
(1700637707.638125) can0 7DF#02010CAAAAAAAAAA
(1700637707.641499) can0 7E8#04410C1B66000000
(1700637707.729399) can0 7E0#0322128C00000000
(1700637707.731552) can0 7E8#0762128C00001464
(1700637707.820267) can0 7DF#02010CAAAAAAAAAA
(1700637707.821504) can0 7E8#04410C1C08000000
(1700637707.911550) can0 7E0#0322128C00000000
(1700637707.921661) can0 7E8#0762128C000017E8
(1700637708.002495) can0 7DF#02010CAAAAAAAAAA
(1700637708.011479) can0 7E8#04410C1D04000000
(1700637708.093674) can0 7E0#0322128C00000000
(1700637708.101538) can0 7E8#0762128C000018A8
(1700637708.184582) can0 7DF#02010CAAAAAAAAAA
(1700637708.191483) can0 7E8#04410C1DAA000000
(1700637708.275800) can0 7E0#0322128C00000000
(1700637708.281708) can0 7E8#0762128C000019A0
(1700637708.366757) can0 7DF#02010CAAAAAAAAAA
(1700637708.371459) can0 7E8#04410C1E86000000
(1700637708.457955) can0 7E0#0322128C00000000
(1700637708.461532) can0 7E8#0762128C000016CF
(1700637708.548892) can0 7DF#02010CAAAAAAAAAA
(1700637708.551478) can0 7E8#04410C1E86000000
(1700637708.640142) can0 7E0#0322128C00000000
(1700637708.641730) can0 7E8#0762128C00001036
(1700637708.731082) can0 7DF#02010CAAAAAAAAAA
(1700637708.741481) can0 7E8#04410C1F82000000
(1700637708.822275) can0 7E0#0322128C00000000
(1700637708.831662) can0 7E8#0762128C00000F6E
(1700637708.913207) can0 7DF#02010CAAAAAAAAAA
(1700637708.921453) can0 7E8#04410C201E000000
(1700637709.004458) can0 7E0#0322128C00000000
(1700637709.011480) can0 7E8#0762128C00000E7A
(1700637709.095354) can0 7DF#02010CAAAAAAAAAA
(1700637709.101670) can0 7E8#04410C2104000000
(1700637709.186543) can0 7E0#0322128C00000000
(1700637709.191478) can0 7E8#0762128C00000E25
(1700637709.277479) can0 7DF#02010CAAAAAAAAAA
(1700637709.281409) can0 7E8#04410C216C000000
(1700637709.368627) can0 7E0#0322128C00000000
(1700637709.371483) can0 7E8#0762128C00000DEB
(1700637709.459548) can0 7DF#02010CAAAAAAAAAA
(1700637709.461386) can0 7E8#04410C222A000000
(1700637709.550736) can0 7E0#0322128C00000000
(1700637709.561478) can0 7E8#0762128C00000D9F
(1700637709.641645) can0 7DF#02010CAAAAAAAAAA
(1700637709.651808) can0 7E8#04410C22A6000000
(1700637709.732827) can0 7E0#0322128C00000000
(1700637709.741479) can0 7E8#0762128C00000DB6
(1700637709.823735) can0 7DF#02010CAAAAAAAAAA
(1700637709.831578) can0 7E8#04410C2364000000
(1700637709.914919) can0 7E0#0322128C00000000
(1700637709.921479) can0 7E8#0762128C00000DD1
(1700637710.005849) can0 7DF#02010CAAAAAAAAAA
(1700637710.011352) can0 7E8#04410C23E8000000
(1700637710.097007) can0 7E0#0322128C00000000
(1700637710.101452) can0 7E8#0762128C00000D7D
(1700637710.187963) can0 7DF#02010CAAAAAAAAAA
(1700637710.191422) can0 7E8#04410C249E000000
(1700637710.279120) can0 7E0#0322128C00000000
(1700637710.281708) can0 7E8#0762128C00000D9B
(1700637710.370047) can0 7DF#02010CAAAAAAAAAA
(1700637710.371348) can0 7E8#04410C2530000000
(1700637710.461228) can0 7E0#0322128C00000000
(1700637710.471410) can0 7E8#0762128C00000D51
(1700637710.552190) can0 7DF#02010CAAAAAAAAAA
(1700637710.561351) can0 7E8#04410C25B0000000
(1700637710.643390) can0 7E0#0322128C00000000
(1700637710.652060) can0 7E8#0762128C00000D01
(1700637710.734353) can0 7DF#02010CAAAAAAAAAA
(1700637710.741279) can0 7E8#04410C25B0000000
(1700637710.825493) can0 7E0#0322128C00000000
(1700637710.831352) can0 7E8#0762128C00000CB6
(1700637710.916408) can0 7DF#02010CAAAAAAAAAA
(1700637710.921268) can0 7E8#04410C2652000000
(1700637711.007553) can0 7E0#0322128C00000000
(1700637711.011352) can0 7E8#0762128C00000C8B
(1700637711.098496) can0 7DF#02010CAAAAAAAAAA
(1700637711.101258) can0 7E8#04410C26EA000000
(1700637711.189643) can0 7E0#0322128C00000000
(1700637711.201353) can0 7E8#0762128C00000C5E
(1700637711.280557) can0 7DF#02010CAAAAAAAAAA
(1700637711.291245) can0 7E8#04410C2790000000
(1700637711.371751) can0 7E0#0322128C00000000
(1700637711.381348) can0 7E8#0762128C00000C3E
(1700637711.462703) can0 7DF#02010CAAAAAAAAAA
(1700637711.471396) can0 7E8#04410C27FC000000
(1700637711.553892) can0 7E0#0322128C00000000
(1700637711.561526) can0 7E8#0762128C00000C32
(1700637711.644808) can0 7DF#02010CAAAAAAAAAA
(1700637711.651254) can0 7E8#04410C2898000000
(1700637711.735987) can0 7E0#0322128C00000000
(1700637711.741357) can0 7E8#0762128C00000C1B
(1700637711.826891) can0 7DF#02010CAAAAAAAAAA
(1700637711.831645) can0 7E8#04410C2924000000
(1700637711.918079) can0 7E0#0322128C00000000
(1700637711.921525) can0 7E8#0762128C000006F3
(1700637712.008981) can0 7DF#02010CAAAAAAAAAA
(1700637712.011229) can0 7E8#04410C28EE000000
(1700637712.100135) can0 7E0#0322128C00000000
(1700637712.101361) can0 7E8#0762128C00000364
(1700637712.191084) can0 7DF#02010CAAAAAAAAAA
(1700637712.201208) can0 7E8#04410C254E000000
(1700637712.282231) can0 7E0#0322128C00000000
(1700637712.291356) can0 7E8#0762128C000002DE
(1700637712.373160) can0 7DF#02010CAAAAAAAAAA
(1700637712.381208) can0 7E8#04410C21AC000000
(1700637712.464352) can0 7E0#0322128C00000000
(1700637712.471709) can0 7E8#0762128C0000055B
(1700637712.555242) can0 7DF#02010CAAAAAAAAAA
(1700637712.561200) can0 7E8#04410C1FE6000000
(1700637712.646457) can0 7E0#0322128C00000000
(1700637712.651263) can0 7E8#0762128C00000E1C
(1700637712.737354) can0 7DF#02010CAAAAAAAAAA
(1700637712.741203) can0 7E8#04410C1FE6000000
(1700637712.828555) can0 7E0#0322128C00000000
(1700637712.831241) can0 7E8#0762128C00000F7C
(1700637712.919500) can0 7DF#02010CAAAAAAAAAA
(1700637712.921178) can0 7E8#04410C1F9E000000
(1700637713.010686) can0 7E0#0322128C00000000
(1700637713.021561) can0 7E8#0762128C00001375
(1700637713.101619) can0 7DF#02010CAAAAAAAAAA
(1700637713.111539) can0 7E8#04410C202A000000
(1700637713.192835) can0 7E0#0322128C00000000
(1700637713.201236) can0 7E8#0762128C000014DF
(1700637713.283786) can0 7DF#02010CAAAAAAAAAA
(1700637713.291145) can0 7E8#04410C2064000000
(1700637713.375026) can0 7E0#0322128C00000000
(1700637713.381213) can0 7E8#0762128C00001712
(1700637713.465962) can0 7DF#02010CAAAAAAAAAA
(1700637713.471128) can0 7E8#04410C211A000000
(1700637713.557181) can0 7E0#0322128C00000000
(1700637713.561231) can0 7E8#0762128C000015F3
(1700637713.648111) can0 7DF#02010CAAAAAAAAAA
(1700637713.651123) can0 7E8#04410C2194000000
(1700637713.739358) can0 7E0#0322128C00000000
(1700637713.741182) can0 7E8#0762128C00001376
(1700637713.830231) can0 7DF#02010CAAAAAAAAAA
(1700637713.841135) can0 7E8#04410C220C000000
(1700637713.921462) can0 7E0#0322128C00000000
(1700637713.931402) can0 7E8#0762128C000011E9
(1700637714.012396) can0 7DF#02010CAAAAAAAAAA
(1700637714.021107) can0 7E8#04410C2268000000
(1700637714.103603) can0 7E0#0322128C00000000
(1700637714.111166) can0 7E8#0762128C0000123D
(1700637714.194538) can0 7DF#02010CAAAAAAAAAA
(1700637714.201358) can0 7E8#04410C22E4000000
(1700637714.285774) can0 7E0#0322128C00000000
(1700637714.291165) can0 7E8#0762128C0000125F
(1700637714.376703) can0 7DF#02010CAAAAAAAAAA
(1700637714.381116) can0 7E8#04410C2338000000
(1700637714.467934) can0 7E0#0322128C00000000
(1700637714.471133) can0 7E8#0762128C00001261
(1700637714.558873) can0 7DF#02010CAAAAAAAAAA
(1700637714.561584) can0 7E8#04410C23BE000000
(1700637714.650106) can0 7E0#0322128C00000000
(1700637714.651352) can0 7E8#0762128C0000126A
(1700637714.741006) can0 7DF#02010CAAAAAAAAAA
(1700637714.751266) can0 7E8#04410C23BE000000
(1700637714.832238) can0 7E0#0322128C00000000
(1700637714.841133) can0 7E8#0762128C0000126B
(1700637714.923141) can0 7DF#02010CAAAAAAAAAA
(1700637714.931051) can0 7E8#04410C241A000000
(1700637715.014427) can0 7E0#0322128C00000000
(1700637715.021126) can0 7E8#0762128C0000120C
(1700637715.105357) can0 7DF#02010CAAAAAAAAAA
(1700637715.111559) can0 7E8#04410C2478000000
(1700637715.196568) can0 7E0#0322128C00000000
(1700637715.201136) can0 7E8#0762128C000009DA
(1700637715.287500) can0 7DF#02010CAAAAAAAAAA
(1700637715.291107) can0 7E8#04410C24A8000000
(1700637715.378645) can0 7E0#0322128C00000000
(1700637715.381106) can0 7E8#0762128C00000498
(1700637715.469578) can0 7DF#02010CAAAAAAAAAA
(1700637715.471008) can0 7E8#04410C2368000000
(1700637715.560756) can0 7E0#0322128C00000000
(1700637715.571247) can0 7E8#0762128C000003A7
(1700637715.651667) can0 7DF#02010CAAAAAAAAAA
(1700637715.661003) can0 7E8#04410C21A4000000
(1700637715.742807) can0 7E0#0322128C00000000
(1700637715.751233) can0 7E8#0762128C00000302
(1700637715.833727) can0 7DF#02010CAAAAAAAAAA
(1700637715.841015) can0 7E8#04410C1F6C000000
(1700637715.924872) can0 7E0#0322128C00000000
(1700637715.931074) can0 7E8#0762128C00000465
(1700637716.015806) can0 7DF#02010CAAAAAAAAAA
(1700637716.021166) can0 7E8#04410C1F82000000
(1700637716.106980) can0 7E0#0322128C00000000
(1700637716.111060) can0 7E8#0762128C00000A00
(1700637716.197902) can0 7DF#02010CAAAAAAAAAA
(1700637716.200986) can0 7E8#04410C1D8C000000
(1700637716.289126) can0 7E0#0322128C00000000
(1700637716.291274) can0 7E8#0762128C00000CD5
(1700637716.380045) can0 7DF#02010CAAAAAAAAAA
(1700637716.380977) can0 7E8#04410C1D8E000000
(1700637716.471232) can0 7E0#0322128C00000000
(1700637716.481762) can0 7E8#0762128C00000EF4
(1700637716.562157) can0 7DF#02010CAAAAAAAAAA
(1700637716.571099) can0 7E8#04410C1DB0000000
(1700637716.653357) can0 7E0#0322128C00000000
(1700637716.661018) can0 7E8#0762128C000010D7
(1700637716.744260) can0 7DF#02010CAAAAAAAAAA
(1700637716.751042) can0 7E8#04410C1DB0000000
(1700637716.835503) can0 7E0#0322128C00000000
(1700637716.841230) can0 7E8#0762128C00000F83
(1700637716.926406) can0 7DF#02010CAAAAAAAAAA
(1700637716.931012) can0 7E8#04410C1E06000000
(1700637717.017578) can0 7E0#0322128C00000000
(1700637717.020998) can0 7E8#0762128C00000E2A
(1700637717.108560) can0 7DF#02010CAAAAAAAAAA
(1700637717.111349) can0 7E8#04410C1E3E000000
(1700637717.199711) can0 7E0#0322128C00000000
(1700637717.201001) can0 7E8#0762128C00000D92
(1700637717.290630) can0 7DF#02010CAAAAAAAAAA
(1700637717.300932) can0 7E8#04410C1E48000000
(1700637717.381827) can0 7E0#0322128C00000000
(1700637717.391016) can0 7E8#0762128C000006C0
(1700637717.472727) can0 7DF#02010CAAAAAAAAAA
(1700637717.481278) can0 7E8#04410C1E52000000
(1700637717.563898) can0 7E0#0322128C00000000
(1700637717.571032) can0 7E8#0762128C000004AC
(1700637717.654808) can0 7DF#02010CAAAAAAAAAA
(1700637717.661113) can0 7E8#04410C1E6A000000
(1700637717.745979) can0 7E0#0322128C00000000
(1700637717.751170) can0 7E8#0762128C0000037A
(1700637717.836911) can0 7DF#02010CAAAAAAAAAA
(1700637717.840892) can0 7E8#04410C1E6C000000
(1700637717.928081) can0 7E0#0322128C00000000
(1700637717.931109) can0 7E8#0762128C000002B0
(1700637718.018988) can0 7DF#02010CAAAAAAAAAA
(1700637718.021239) can0 7E8#04410C1E56000000
(1700637718.110162) can0 7E0#0322128C00000000
(1700637718.120920) can0 7E8#0762128C00000254
(1700637718.201113) can0 7DF#02010CAAAAAAAAAA
(1700637718.211020) can0 7E8#04410C1E16000000
(1700637718.292276) can0 7E0#0322128C00000000
(1700637718.300910) can0 7E8#0762128C00000224
(1700637718.383204) can0 7DF#02010CAAAAAAAAAA
(1700637718.390851) can0 7E8#04410C1E48000000
(1700637718.474351) can0 7E0#0322128C00000000
(1700637718.481352) can0 7E8#0762128C000001F1
(1700637718.565246) can0 7DF#02010CAAAAAAAAAA
(1700637718.570853) can0 7E8#04410C1E28000000
(1700637718.656459) can0 7E0#0322128C00000000
(1700637718.660900) can0 7E8#0762128C000001DB
(1700637718.747387) can0 7DF#02010CAAAAAAAAAA
(1700637718.750853) can0 7E8#04410C1E28000000
(1700637718.838548) can0 7E0#0322128C00000000
(1700637718.840909) can0 7E8#0762128C00000000
(1700637718.929457) can0 7DF#02010CAAAAAAAAAA
(1700637718.930850) can0 7E8#04410C1E08000000
(1700637719.020270) can0 7E0#0322128C00000000
(1700637719.030882) can0 7E8#0762128C00000399
(1700637719.111183) can0 7DF#02010CAAAAAAAAAA
(1700637719.121112) can0 7E8#04410C1DF6000000
(1700637719.202335) can0 7E0#0322128C00000000
(1700637719.210885) can0 7E8#0762128C00000584
(1700637719.293258) can0 7DF#02010CAAAAAAAAAA
(1700637719.300798) can0 7E8#04410C1DEE000000
(1700637719.384475) can0 7E0#0322128C00000000
(1700637719.391003) can0 7E8#0762128C000008C0
(1700637719.475406) can0 7DF#02010CAAAAAAAAAA
(1700637719.480984) can0 7E8#04410C1DCE000000
(1700637719.566551) can0 7E0#0322128C00000000
(1700637719.570852) can0 7E8#0762128C00000952
(1700637719.657482) can0 7DF#02010CAAAAAAAAAA
(1700637719.660797) can0 7E8#04410C1E08000000
(1700637719.748625) can0 7E0#0322128C00000000
(1700637719.760907) can0 7E8#0762128C000008EB
(1700637719.839554) can0 7DF#02010CAAAAAAAAAA
(1700637719.840797) can0 7E8#04410C1E0C000000
(1700637719.930702) can0 7E0#0322128C00000000
(1700637719.940828) can0 7E8#0762128C00000956
(1700637720.021613) can0 7DF#02010CAAAAAAAAAA
(1700637720.030795) can0 7E8#04410C1E0C000000
(1700637720.112785) can0 7E0#0322128C00000000
(1700637720.121037) can0 7E8#0762128C00000A05
(1700637720.203709) can0 7DF#02010CAAAAAAAAAA
(1700637720.211083) can0 7E8#04410C1E1A000000
(1700637720.294952) can0 7E0#0322128C00000000
(1700637720.300801) can0 7E8#0762128C00000962
(1700637720.385858) can0 7DF#02010CAAAAAAAAAA
(1700637720.390738) can0 7E8#04410C1E34000000
(1700637720.477031) can0 7E0#0322128C00000000
(1700637720.480797) can0 7E8#0762128C0000096A
(1700637720.567948) can0 7DF#02010CAAAAAAAAAA
(1700637720.571080) can0 7E8#04410C1E50000000
(1700637720.659120) can0 7E0#0322128C00000000
(1700637720.660806) can0 7E8#0762128C00000A08
(1700637720.750052) can0 7DF#02010CAAAAAAAAAA
(1700637720.760729) can0 7E8#04410C1E6C000000
(1700637720.841238) can0 7E0#0322128C00000000
(1700637720.850775) can0 7E8#0762128C00000C40
(1700637720.932176) can0 7DF#02010CAAAAAAAAAA
(1700637720.940919) can0 7E8#04410C1E6C000000
(1700637721.023394) can0 7E0#0322128C00000000
(1700637721.030767) can0 7E8#0762128C00000CB8
(1700637721.114357) can0 7DF#02010CAAAAAAAAAA
(1700637721.120730) can0 7E8#04410C1E8A000000
(1700637721.205529) can0 7E0#0322128C00000000
(1700637721.210750) can0 7E8#0762128C00000C9E
(1700637721.296451) can0 7DF#02010CAAAAAAAAAA
(1700637721.300703) can0 7E8#04410C1EA6000000
(1700637721.387601) can0 7E0#0322128C00000000
(1700637721.390735) can0 7E8#0762128C00000C95
(1700637721.478549) can0 7DF#02010CAAAAAAAAAA
(1700637721.480676) can0 7E8#04410C1EDE000000
(1700637721.569700) can0 7E0#0322128C00000000
(1700637721.570746) can0 7E8#0762128C00000C8C
(1700637721.660612) can0 7DF#02010CAAAAAAAAAA
(1700637721.671046) can0 7E8#04410C1EFA000000
(1700637721.751789) can0 7E0#0322128C00000000
(1700637721.761048) can0 7E8#0762128C00000709
(1700637721.842729) can0 7DF#02010CAAAAAAAAAA
(1700637721.850703) can0 7E8#04410C1EF6000000
(1700637721.933885) can0 7E0#0322128C00000000
(1700637721.940726) can0 7E8#0762128C0000046E
(1700637722.024811) can0 7DF#02010CAAAAAAAAAA
(1700637722.030639) can0 7E8#04410C1D34000000
(1700637722.115986) can0 7E0#0322128C00000000
(1700637722.120727) can0 7E8#0762128C000003CC
(1700637722.206891) can0 7DF#02010CAAAAAAAAAA
(1700637722.210647) can0 7E8#04410C1C86000000
(1700637722.298101) can0 7E0#0322128C00000000
(1700637722.300704) can0 7E8#0762128C00000310
(1700637722.388997) can0 7DF#02010CAAAAAAAAAA
(1700637722.390653) can0 7E8#04410C1BA2000000
(1700637722.480161) can0 7E0#0322128C00000000
(1700637722.490708) can0 7E8#0762128C00000535
(1700637722.571101) can0 7DF#02010CAAAAAAAAAA
(1700637722.580611) can0 7E8#04410C192C000000
(1700637722.662260) can0 7E0#0322128C00000000
(1700637722.670668) can0 7E8#0762128C0000091D
(1700637722.753209) can0 7DF#02010CAAAAAAAAAA
(1700637722.760612) can0 7E8#04410C19E0000000
(1700637722.844401) can0 7E0#0322128C00000000
(1700637722.851153) can0 7E8#0762128C00000A81
(1700637722.935351) can0 7DF#02010CAAAAAAAAAA
(1700637722.940602) can0 7E8#04410C19E0000000
(1700637723.026526) can0 7E0#0322128C00000000
(1700637723.030669) can0 7E8#0762128C00000AD6
(1700637723.117454) can0 7DF#02010CAAAAAAAAAA
(1700637723.120598) can0 7E8#04410C19B6000000
(1700637723.208592) can0 7E0#0322128C00000000
(1700637723.210670) can0 7E8#0762128C00000AE0
(1700637723.299550) can0 7DF#02010CAAAAAAAAAA
(1700637723.300596) can0 7E8#04410C19BE000000
(1700637723.390728) can0 7E0#0322128C00000000
(1700637723.400621) can0 7E8#0762128C00000B11
(1700637723.481643) can0 7DF#02010CAAAAAAAAAA
(1700637723.490558) can0 7E8#04410C19C6000000
(1700637723.572847) can0 7E0#0322128C00000000
(1700637723.580614) can0 7E8#0762128C00000C5E
(1700637723.663757) can0 7DF#02010CAAAAAAAAAA
(1700637723.670577) can0 7E8#04410C19FA000000
(1700637723.754943) can0 7E0#0322128C00000000
(1700637723.760628) can0 7E8#0762128C00000DFE
(1700637723.845892) can0 7DF#02010CAAAAAAAAAA
(1700637723.850583) can0 7E8#04410C19EC000000
(1700637723.937078) can0 7E0#0322128C00000000
(1700637723.940612) can0 7E8#0762128C00000E6E
(1700637724.027991) can0 7DF#02010CAAAAAAAAAA
(1700637724.030561) can0 7E8#04410C1A24000000
(1700637724.119170) can0 7E0#0322128C00000000
(1700637724.120603) can0 7E8#0762128C00000DD3
(1700637724.210108) can0 7DF#02010CAAAAAAAAAA
(1700637724.220563) can0 7E8#04410C1A3A000000
(1700637724.301273) can0 7E0#0322128C00000000
(1700637724.310677) can0 7E8#0762128C00000D67
(1700637724.392229) can0 7DF#02010CAAAAAAAAAA
(1700637724.400542) can0 7E8#04410C1A30000000
(1700637724.483431) can0 7E0#0322128C00000000
(1700637724.490584) can0 7E8#0762128C00000D20
(1700637724.574352) can0 7DF#02010CAAAAAAAAAA
(1700637724.580538) can0 7E8#04410C1A64000000
(1700637724.665554) can0 7E0#0322128C00000000
(1700637724.670579) can0 7E8#0762128C00000C9F
(1700637724.756489) can0 7DF#02010CAAAAAAAAAA
(1700637724.760532) can0 7E8#04410C1A6A000000
(1700637724.847656) can0 7E0#0322128C00000000
(1700637724.850561) can0 7E8#0762128C00000BFE
(1700637724.938563) can0 7DF#02010CAAAAAAAAAA
(1700637724.940511) can0 7E8#04410C1A6A000000
(1700637725.029751) can0 7E0#0322128C00000000
(1700637725.040561) can0 7E8#0762128C00000BA1
(1700637725.120670) can0 7DF#02010CAAAAAAAAAA
(1700637725.130503) can0 7E8#04410C1A98000000
(1700637725.211859) can0 7E0#0322128C00000000
(1700637725.220562) can0 7E8#0762128C00000B6E
(1700637725.302788) can0 7DF#02010CAAAAAAAAAA
(1700637725.310498) can0 7E8#04410C1A96000000
(1700637725.393979) can0 7E0#0322128C00000000
(1700637725.400561) can0 7E8#0762128C00000B4F
(1700637725.484929) can0 7DF#02010CAAAAAAAAAA
(1700637725.490674) can0 7E8#04410C1A9E000000
(1700637725.576120) can0 7E0#0322128C00000000
(1700637725.580626) can0 7E8#0762128C00000B77
(1700637725.667080) can0 7DF#02010CAAAAAAAAAA
(1700637725.670499) can0 7E8#04410C1ACC000000
(1700637725.758288) can0 7E0#0322128C00000000
(1700637725.760525) can0 7E8#0762128C00000C19
(1700637725.849209) can0 7DF#02010CAAAAAAAAAA
(1700637725.850489) can0 7E8#04410C1AD6000000
(1700637725.940429) can0 7E0#0322128C00000000
(1700637725.950515) can0 7E8#0762128C00000C78
(1700637726.031353) can0 7DF#02010CAAAAAAAAAA
(1700637726.040457) can0 7E8#04410C1AFA000000
(1700637726.122524) can0 7E0#0322128C00000000
(1700637726.130501) can0 7E8#0762128C00000BE5
(1700637726.213490) can0 7DF#02010CAAAAAAAAAA
(1700637726.220454) can0 7E8#04410C1AF8000000
(1700637726.304602) can0 7E0#0322128C00000000
(1700637726.310883) can0 7E8#0762128C00000AA2
(1700637726.395557) can0 7DF#02010CAAAAAAAAAA
(1700637726.400433) can0 7E8#04410C1AF2000000
(1700637726.486729) can0 7E0#0322128C00000000
(1700637726.490491) can0 7E8#0762128C000005D4
(1700637726.577648) can0 7DF#02010CAAAAAAAAAA
(1700637726.580417) can0 7E8#04410C1AE8000000
(1700637726.668833) can0 7E0#0322128C00000000
(1700637726.670476) can0 7E8#0762128C00000401
(1700637726.759739) can0 7DF#02010CAAAAAAAAAA
(1700637726.770505) can0 7E8#04410C1AEE000000
(1700637726.850906) can0 7E0#0322128C00000000
(1700637726.860485) can0 7E8#0762128C00000567
(1700637726.941829) can0 7DF#02010CAAAAAAAAAA
(1700637726.950405) can0 7E8#04410C1AEE000000
(1700637727.032985) can0 7E0#0322128C00000000
(1700637727.040462) can0 7E8#0762128C00000773
(1700637727.123908) can0 7DF#02010CAAAAAAAAAA
(1700637727.130391) can0 7E8#04410C1B0A000000
(1700637727.215082) can0 7E0#0322128C00000000
(1700637727.220464) can0 7E8#0762128C000007DF
(1700637727.306008) can0 7DF#02010CAAAAAAAAAA
(1700637727.310357) can0 7E8#04410C1AF8000000
(1700637727.397175) can0 7E0#0322128C00000000
(1700637727.400456) can0 7E8#0762128C0000084D
(1700637727.488105) can0 7DF#02010CAAAAAAAAAA
(1700637727.490531) can0 7E8#04410C1AF2000000
(1700637727.579249) can0 7E0#0322128C00000000
(1700637727.580459) can0 7E8#0762128C000009B2
(1700637727.670159) can0 7DF#02010CAAAAAAAAAA
(1700637727.680357) can0 7E8#04410C1AFC000000
(1700637727.761357) can0 7E0#0322128C00000000
(1700637727.770783) can0 7E8#0762128C00000A4B
(1700637727.852245) can0 7DF#02010CAAAAAAAAAA
(1700637727.860356) can0 7E8#04410C1B10000000
(1700637727.943480) can0 7E0#0322128C00000000
(1700637727.950733) can0 7E8#0762128C00000A28
(1700637728.034393) can0 7DF#02010CAAAAAAAAAA
(1700637728.040356) can0 7E8#04410C1B08000000
(1700637728.125579) can0 7E0#0322128C00000000
(1700637728.130394) can0 7E8#0762128C000009C2
(1700637728.216514) can0 7DF#02010CAAAAAAAAAA
(1700637728.220533) can0 7E8#04410C1B0C000000
(1700637728.307663) can0 7E0#0322128C00000000
(1700637728.310390) can0 7E8#0762128C0000091A
(1700637728.398580) can0 7DF#02010CAAAAAAAAAA
(1700637728.400352) can0 7E8#04410C1B1A000000
(1700637728.489751) can0 7E0#0322128C00000000
(1700637728.500357) can0 7E8#0762128C000008BA
(1700637728.580658) can0 7DF#02010CAAAAAAAAAA
(1700637728.590357) can0 7E8#04410C1B0C000000
(1700637728.671824) can0 7E0#0322128C00000000
(1700637728.680358) can0 7E8#0762128C00000870
(1700637728.762739) can0 7DF#02010CAAAAAAAAAA
(1700637728.770260) can0 7E8#04410C1B1C000000
(1700637728.853886) can0 7E0#0322128C00000000
(1700637728.860405) can0 7E8#0762128C0000081A
(1700637728.944828) can0 7DF#02010CAAAAAAAAAA
(1700637728.950250) can0 7E8#04410C1B1C000000
(1700637729.035980) can0 7E0#0322128C00000000
(1700637729.040356) can0 7E8#0762128C000007BB
(1700637729.126890) can0 7DF#02010CAAAAAAAAAA
(1700637729.130243) can0 7E8#04410C1B18000000
(1700637729.218087) can0 7E0#0322128C00000000
(1700637729.220354) can0 7E8#0762128C000004F2
(1700637729.308984) can0 7DF#02010CAAAAAAAAAA
(1700637729.310391) can0 7E8#04410C1AEA000000
(1700637729.400172) can0 7E0#0322128C00000000
(1700637729.410357) can0 7E8#0762128C00000382
(1700637729.491079) can0 7DF#02010CAAAAAAAAAA
(1700637729.500228) can0 7E8#04410C1AF8000000
(1700637729.582230) can0 7E0#0322128C00000000
(1700637729.590355) can0 7E8#0762128C000003CA
(1700637729.673139) can0 7DF#02010CAAAAAAAAAA
(1700637729.680208) can0 7E8#04410C1B08000000
(1700637729.764357) can0 7E0#0322128C00000000
(1700637729.770271) can0 7E8#0762128C000006A9
(1700637729.855256) can0 7DF#02010CAAAAAAAAAA
(1700637729.860210) can0 7E8#04410C1B0C000000
(1700637729.946438) can0 7E0#0322128C00000000
(1700637729.950264) can0 7E8#0762128C00000817
(1700637730.037360) can0 7DF#02010CAAAAAAAAAA
(1700637730.040203) can0 7E8#04410C1B04000000
(1700637730.128530) can0 7E0#0322128C00000000
(1700637730.130511) can0 7E8#0762128C0000083C
(1700637730.219455) can0 7DF#02010CAAAAAAAAAA
(1700637730.230209) can0 7E8#04410C1AEC000000
(1700637730.310556) can0 7E0#0322128C00000000
(1700637730.320637) can0 7E8#0762128C00000896
(1700637730.401509) can0 7DF#02010CAAAAAAAAAA
(1700637730.410176) can0 7E8#04410C1B08000000
(1700637730.492636) can0 7E0#0322128C00000000
(1700637730.500234) can0 7E8#0762128C0000089E
(1700637730.583557) can0 7DF#02010CAAAAAAAAAA
(1700637730.590162) can0 7E8#04410C1B06000000
(1700637730.674708) can0 7E0#0322128C00000000
(1700637730.680231) can0 7E8#0762128C00000821
(1700637730.765644) can0 7DF#02010CAAAAAAAAAA
(1700637730.770145) can0 7E8#04410C1B00000000
(1700637730.856805) can0 7E0#0322128C00000000
(1700637730.860203) can0 7E8#0762128C000007A8
(1700637730.947732) can0 7DF#02010CAAAAAAAAAA
(1700637730.950175) can0 7E8#04410C1B00000000
(1700637731.038879) can0 7E0#0322128C00000000
(1700637731.040203) can0 7E8#0762128C00000761
(1700637731.129778) can0 7DF#02010CAAAAAAAAAA
(1700637731.140155) can0 7E8#04410C1B04000000
(1700637731.220961) can0 7E0#0322128C00000000
(1700637731.230183) can0 7E8#0762128C00000741
(1700637731.311860) can0 7DF#02010CAAAAAAAAAA
(1700637731.320137) can0 7E8#04410C1B06000000
(1700637731.403009) can0 7E0#0322128C00000000
(1700637731.410408) can0 7E8#0762128C000007BC
(1700637731.493933) can0 7DF#02010CAAAAAAAAAA
(1700637731.500107) can0 7E8#04410C1B10000000
(1700637731.585103) can0 7E0#0322128C00000000
(1700637731.590162) can0 7E8#0762128C00000916
(1700637731.676019) can0 7DF#02010CAAAAAAAAAA
(1700637731.680117) can0 7E8#04410C1B1E000000
(1700637731.767208) can0 7E0#0322128C00000000
(1700637731.770165) can0 7E8#0762128C00000982
(1700637731.858111) can0 7DF#02010CAAAAAAAAAA
(1700637731.860081) can0 7E8#04410C1B0C000000
(1700637731.949283) can0 7E0#0322128C00000000
(1700637731.950352) can0 7E8#0762128C0000099E
(1700637732.040204) can0 7DF#02010CAAAAAAAAAA
(1700637732.050106) can0 7E8#04410C1B0E000000
(1700637732.131416) can0 7E0#0322128C00000000
(1700637732.140456) can0 7E8#0762128C0000090C
(1700637732.222360) can0 7DF#02010CAAAAAAAAAA
(1700637732.230125) can0 7E8#04410C1B28000000
(1700637732.313528) can0 7E0#0322128C00000000
(1700637732.320120) can0 7E8#0762128C000008F6
(1700637732.404453) can0 7DF#02010CAAAAAAAAAA
(1700637732.410062) can0 7E8#04410C1B28000000
(1700637732.495604) can0 7E0#0322128C00000000
(1700637732.500244) can0 7E8#0762128C000008E3
(1700637732.586553) can0 7DF#02010CAAAAAAAAAA
(1700637732.590234) can0 7E8#04410C1B2C000000
(1700637732.677676) can0 7E0#0322128C00000000
(1700637732.680111) can0 7E8#0762128C000008E6
(1700637732.768605) can0 7DF#02010CAAAAAAAAAA
(1700637732.770030) can0 7E8#04410C1B36000000
(1700637732.859740) can0 7E0#0322128C00000000
(1700637732.870105) can0 7E8#0762128C000009B4
(1700637732.950665) can0 7DF#02010CAAAAAAAAAA
(1700637732.960024) can0 7E8#04410C1B54000000
(1700637733.041803) can0 7E0#0322128C00000000
(1700637733.050108) can0 7E8#0762128C00000A00
(1700637733.132714) can0 7DF#02010CAAAAAAAAAA
(1700637733.140023) can0 7E8#04410C1B54000000
(1700637733.223961) can0 7E0#0322128C00000000
(1700637733.230108) can0 7E8#0762128C00000B20
(1700637733.314872) can0 7DF#02010CAAAAAAAAAA
(1700637733.320012) can0 7E8#04410C1B3E000000
(1700637733.406079) can0 7E0#0322128C00000000
(1700637733.410083) can0 7E8#0762128C00000C09
(1700637733.496998) can0 7DF#02010CAAAAAAAAAA
(1700637733.499987) can0 7E8#04410C1B64000000
(1700637733.588160) can0 7E0#0322128C00000000
(1700637733.600083) can0 7E8#0762128C00000C2C
(1700637733.679102) can0 7DF#02010CAAAAAAAAAA
(1700637733.679985) can0 7E8#04410C1B6A000000
(1700637733.770264) can0 7E0#0322128C00000000
(1700637733.780038) can0 7E8#0762128C00000BA5
(1700637733.861179) can0 7DF#02010CAAAAAAAAAA
(1700637733.869982) can0 7E8#04410C1B84000000
(1700637733.952397) can0 7E0#0322128C00000000
(1700637733.960456) can0 7E8#0762128C00000B54
(1700637734.043352) can0 7DF#02010CAAAAAAAAAA
(1700637734.049963) can0 7E8#04410C1B70000000
(1700637734.134537) can0 7E0#0322128C00000000
(1700637734.140032) can0 7E8#0762128C00000BED
(1700637734.225440) can0 7DF#02010CAAAAAAAAAA
(1700637734.230157) can0 7E8#04410C1B9C000000
(1700637734.316610) can0 7E0#0322128C00000000
(1700637734.320002) can0 7E8#0762128C00000BF5
(1700637734.407556) can0 7DF#02010CAAAAAAAAAA
(1700637734.409957) can0 7E8#04410C1B94000000
(1700637734.498735) can0 7E0#0322128C00000000
(1700637734.499999) can0 7E8#0762128C000005DD
(1700637734.589622) can0 7DF#02010CAAAAAAAAAA
(1700637734.599958) can0 7E8#04410C1BA6000000
(1700637734.680777) can0 7E0#0322128C00000000
(1700637734.690457) can0 7E8#0762128C00000426
(1700637734.771741) can0 7DF#02010CAAAAAAAAAA
(1700637734.779920) can0 7E8#04410C1B8E000000
(1700637734.862890) can0 7E0#0322128C00000000
(1700637734.869984) can0 7E8#0762128C0000041A
(1700637734.953814) can0 7DF#02010CAAAAAAAAAA
(1700637734.960050) can0 7E8#04410C1BA8000000
(1700637735.044980) can0 7E0#0322128C00000000
(1700637735.049983) can0 7E8#0762128C00000703
(1700637735.135899) can0 7DF#02010CAAAAAAAAAA
(1700637735.139891) can0 7E8#04410C1BA8000000
(1700637735.227056) can0 7E0#0322128C00000000
(1700637735.230136) can0 7E8#0762128C000008A8
(1700637735.317994) can0 7DF#02010CAAAAAAAAAA
(1700637735.319889) can0 7E8#04410C1B96000000
(1700637735.409142) can0 7E0#0322128C00000000
(1700637735.419958) can0 7E8#0762128C00000A58
(1700637735.500082) can0 7DF#02010CAAAAAAAAAA
(1700637735.509888) can0 7E8#04410C1BA2000000
(1700637735.591355) can0 7E0#0322128C00000000
(1700637735.599930) can0 7E8#0762128C00000B76
(1700637735.682208) can0 7DF#02010CAAAAAAAAAA
(1700637735.689876) can0 7E8#04410C1B96000000
(1700637735.773434) can0 7E0#0322128C00000000
(1700637735.779929) can0 7E8#0762128C00000C3F
(1700637735.864357) can0 7DF#02010CAAAAAAAAAA
(1700637735.869859) can0 7E8#04410C1BB8000000
(1700637735.955557) can0 7E0#0322128C00000000
(1700637735.960100) can0 7E8#0762128C00000D42
(1700637736.046490) can0 7DF#02010CAAAAAAAAAA
(1700637736.049857) can0 7E8#04410C1BCC000000
(1700637736.137618) can0 7E0#0322128C00000000
(1700637736.139898) can0 7E8#0762128C00000E93
(1700637736.228539) can0 7DF#02010CAAAAAAAAAA
(1700637736.230039) can0 7E8#04410C1BDE000000
(1700637736.319734) can0 7E0#0322128C00000000
(1700637736.330107) can0 7E8#0762128C00001036
(1700637736.410631) can0 7DF#02010CAAAAAAAAAA
(1700637736.419854) can0 7E8#04410C1BF4000000
(1700637736.501853) can0 7E0#0322128C00000000
(1700637736.509886) can0 7E8#0762128C000010A2
(1700637736.592749) can0 7DF#02010CAAAAAAAAAA
(1700637736.600505) can0 7E8#04410C1C1C000000
(1700637736.683977) can0 7E0#0322128C00000000
(1700637736.689876) can0 7E8#0762128C0000107F
(1700637736.774894) can0 7DF#02010CAAAAAAAAAA
(1700637736.779833) can0 7E8#04410C1C36000000
(1700637736.866127) can0 7E0#0322128C00000000
(1700637736.869864) can0 7E8#0762128C00000FF4
(1700637736.957045) can0 7DF#02010CAAAAAAAAAA
(1700637736.959777) can0 7E8#04410C1C36000000
(1700637737.048264) can0 7E0#0322128C00000000
(1700637737.050229) can0 7E8#0762128C00000F99
(1700637737.139194) can0 7DF#02010CAAAAAAAAAA
(1700637737.149774) can0 7E8#04410C1C36000000
(1700637737.230426) can0 7E0#0322128C00000000
(1700637737.239855) can0 7E8#0762128C00000F6B
(1700637737.321359) can0 7DF#02010CAAAAAAAAAA
(1700637737.329985) can0 7E8#04410C1C62000000
(1700637737.412553) can0 7E0#0322128C00000000
(1700637737.419860) can0 7E8#0762128C00000F18
(1700637737.503463) can0 7DF#02010CAAAAAAAAAA
(1700637737.509924) can0 7E8#04410C1C42000000
(1700637737.594602) can0 7E0#0322128C00000000
(1700637737.599857) can0 7E8#0762128C00000EFD
(1700637737.685550) can0 7DF#02010CAAAAAAAAAA
(1700637737.689746) can0 7E8#04410C1C68000000
(1700637737.776703) can0 7E0#0322128C00000000
(1700637737.779828) can0 7E8#0762128C00000EB9
(1700637737.867636) can0 7DF#02010CAAAAAAAAAA
(1700637737.869755) can0 7E8#04410C1C78000000
(1700637737.958832) can0 7E0#0322128C00000000
(1700637737.959828) can0 7E8#0762128C00000DE7
(1700637738.049743) can0 7DF#02010CAAAAAAAAAA
(1700637738.059733) can0 7E8#04410C1C84000000
(1700637738.140914) can0 7E0#0322128C00000000
(1700637738.149836) can0 7E8#0762128C0000076F
(1700637738.231837) can0 7DF#02010CAAAAAAAAAA
(1700637738.239736) can0 7E8#04410C1C6A000000
(1700637738.323001) can0 7E0#0322128C00000000
(1700637738.329792) can0 7E8#0762128C000004CC
(1700637738.413930) can0 7DF#02010CAAAAAAAAAA
(1700637738.419713) can0 7E8#04410C1C64000000
(1700637738.505127) can0 7E0#0322128C00000000
(1700637738.509770) can0 7E8#0762128C00000434
(1700637738.596033) can0 7DF#02010CAAAAAAAAAA
(1700637738.599704) can0 7E8#04410C1C80000000
(1700637738.687185) can0 7E0#0322128C00000000
(1700637738.689746) can0 7E8#0762128C00000789
(1700637738.778101) can0 7DF#02010CAAAAAAAAAA
(1700637738.779852) can0 7E8#04410C1C64000000
(1700637738.869259) can0 7E0#0322128C00000000
(1700637738.879900) can0 7E8#0762128C00000940
(1700637738.960171) can0 7DF#02010CAAAAAAAAAA
(1700637738.969681) can0 7E8#04410C1C60000000
(1700637739.051355) can0 7E0#0322128C00000000
(1700637739.059740) can0 7E8#0762128C000009DD
(1700637739.142240) can0 7DF#02010CAAAAAAAAAA
(1700637739.150020) can0 7E8#04410C1C60000000
(1700637739.233479) can0 7E0#0322128C00000000
(1700637739.239734) can0 7E8#0762128C00000A11
(1700637739.324352) can0 7DF#02010CAAAAAAAAAA
(1700637739.329662) can0 7E8#04410C1C72000000
(1700637739.415561) can0 7E0#0322128C00000000
(1700637739.419734) can0 7E8#0762128C00000A06
(1700637739.506523) can0 7DF#02010CAAAAAAAAAA
(1700637739.509643) can0 7E8#04410C1C66000000
(1700637739.597703) can0 7E0#0322128C00000000
(1700637739.599703) can0 7E8#0762128C00000845
(1700637739.688602) can0 7DF#02010CAAAAAAAAAA
(1700637739.689652) can0 7E8#04410C1C78000000
(1700637739.779768) can0 7E0#0322128C00000000
(1700637739.789708) can0 7E8#0762128C000004C1
(1700637739.870714) can0 7DF#02010CAAAAAAAAAA
(1700637739.879621) can0 7E8#04410C1C72000000
(1700637739.961887) can0 7E0#0322128C00000000
(1700637739.970042) can0 7E8#0762128C0000039B
(1700637740.052776) can0 7DF#02010CAAAAAAAAAA
(1700637740.059621) can0 7E8#04410C1C34000000
(1700637740.143959) can0 7E0#0322128C00000000
(1700637740.149812) can0 7E8#0762128C000002D1
(1700637740.234842) can0 7DF#02010CAAAAAAAAAA
(1700637740.239619) can0 7E8#04410C1C36000000
(1700637740.326026) can0 7E0#0322128C00000000
(1700637740.329672) can0 7E8#0762128C00000250
(1700637740.416958) can0 7DF#02010CAAAAAAAAAA
(1700637740.419602) can0 7E8#04410C1C08000000
(1700637740.508123) can0 7E0#0322128C00000000
(1700637740.519833) can0 7E8#0762128C000001FF
(1700637740.599028) can0 7DF#02010CAAAAAAAAAA
(1700637740.609610) can0 7E8#04410C1C14000000
(1700637740.690203) can0 7E0#0322128C00000000
(1700637740.699645) can0 7E8#0762128C000001D2
(1700637740.781102) can0 7DF#02010CAAAAAAAAAA
(1700637740.789606) can0 7E8#04410C1BFE000000
(1700637740.872258) can0 7E0#0322128C00000000
(1700637740.879629) can0 7E8#0762128C000002E7
(1700637740.963179) can0 7DF#02010CAAAAAAAAAA
(1700637740.969735) can0 7E8#04410C1C68000000
(1700637741.054358) can0 7E0#0322128C00000000
(1700637741.059626) can0 7E8#0762128C00000641
(1700637741.145358) can0 7DF#02010CAAAAAAAAAA
(1700637741.149543) can0 7E8#04410C1C68000000
(1700637741.236506) can0 7E0#0322128C00000000
(1700637741.239982) can0 7E8#0762128C000007BA
(1700637741.327399) can0 7DF#02010CAAAAAAAAAA
(1700637741.329561) can0 7E8#04410C1C02000000
(1700637741.418554) can0 7E0#0322128C00000000
(1700637741.419612) can0 7E8#0762128C0000083A
(1700637741.509502) can0 7DF#02010CAAAAAAAAAA
(1700637741.519559) can0 7E8#04410C1BCE000000
(1700637741.600622) can0 7E0#0322128C00000000
(1700637741.609962) can0 7E8#0762128C00000876
(1700637741.691577) can0 7DF#02010CAAAAAAAAAA
(1700637741.699551) can0 7E8#04410C1BDC000000
(1700637741.782725) can0 7E0#0322128C00000000
(1700637741.789580) can0 7E8#0762128C00000719
(1700637741.873643) can0 7DF#02010CAAAAAAAAAA
(1700637741.879541) can0 7E8#04410C1BBA000000
(1700637741.964831) can0 7E0#0322128C00000000
(1700637741.969561) can0 7E8#0762128C00000695
(1700637742.055731) can0 7DF#02010CAAAAAAAAAA
(1700637742.059552) can0 7E8#04410C1BB2000000
(1700637742.146881) can0 7E0#0322128C00000000
(1700637742.149734) can0 7E8#0762128C0000061B
(1700637742.237787) can0 7DF#02010CAAAAAAAAAA
(1700637742.239559) can0 7E8#04410C1BC6000000
(1700637742.328980) can0 7E0#0322128C00000000
(1700637742.339559) can0 7E8#0762128C00000833
(1700637742.419898) can0 7DF#02010CAAAAAAAAAA
(1700637742.429519) can0 7E8#04410C1BCA000000
(1700637742.511067) can0 7E0#0322128C00000000