(1700619493.170179) can0 7E0#0322128C00000000
(1700619493.177246) can0 7E8#0762128C000002C2
(1700619493.261127) can0 7DF#02010CAAAAAAAAAA
(1700619493.267224) can0 7E8#04410C1064000000
(1700619493.351883) can0 7E0#0322128C00000000
(1700619493.357353) can0 7E8#0762128C000002C1
(1700619493.442824) can0 7DF#02010CAAAAAAAAAA
(1700619493.447366) can0 7E8#04410C103E000000
(1700619493.533639) can0 7E0#0322128C00000000
(1700619493.537493) can0 7E8#0762128C000002CB
(1700619493.624537) can0 7DF#02010CAAAAAAAAAA
(1700619493.627175) can0 7E8#04410C1032000000
(1700619493.715377) can0 7E0#0322128C00000000
(1700619493.717224) can0 7E8#0762128C000002E3
(1700619493.806291) can0 7DF#02010CAAAAAAAAAA
(1700619493.817224) can0 7E8#04410C1002000000
(1700619493.897154) can0 7E0#0322128C00000000
(1700619493.907200) can0 7E8#0762128C000002F7
(1700619493.988102) can0 7DF#02010CAAAAAAAAAA
(1700619493.997155) can0 7E8#04410C0FDA000000
(1700619494.078873) can0 7E0#0322128C00000000
(1700619494.087204) can0 7E8#0762128C000002E8
(1700619494.169777) can0 7DF#02010CAAAAAAAAAA
(1700619494.177158) can0 7E8#04410C0FB0000000
(1700619494.260608) can0 7E0#0322128C00000000
(1700619494.267178) can0 7E8#0762128C000002E0
(1700619494.351525) can0 7DF#02010CAAAAAAAAAA
(1700619494.357142) can0 7E8#04410C0F6A000000
(1700619494.442350) can0 7E0#0322128C00000000
(1700619494.447178) can0 7E8#0762128C000002DF
(1700619494.533249) can0 7DF#02010CAAAAAAAAAA
(1700619494.537118) can0 7E8#04410C0F52000000
(1700619494.624098) can0 7E0#0322128C00000000
(1700619494.627195) can0 7E8#0762128C000002E4
(1700619494.715027) can0 7DF#02010CAAAAAAAAAA
(1700619494.717110) can0 7E8#04410C0F52000000
(1700619494.805831) can0 7E0#0322128C00000000
(1700619494.807218) can0 7E8#0762128C000002DE
(1700619494.896737) can0 7DF#02010CAAAAAAAAAA
(1700619494.907275) can0 7E8#04410C0F18000000
(1700619494.987548) can0 7E0#0322128C00000000
(1700619494.997165) can0 7E8#0762128C00000372
(1700619495.078476) can0 7DF#02010CAAAAAAAAAA
(1700619495.087179) can0 7E8#04410C0C6C000000
(1700619495.169305) can0 7E0#0322128C00000000
(1700619495.177150) can0 7E8#0762128C000006A6
(1700619495.260227) can0 7DF#02010CAAAAAAAAAA
(1700619495.267098) can0 7E8#04410C0A9A000000
(1700619495.351102) can0 7E0#0322128C00000000
(1700619495.357354) can0 7E8#0762128C00000997
(1700619495.441973) can0 7DF#02010CAAAAAAAAAA
(1700619495.447168) can0 7E8#04410C0AB0000000
(1700619495.532771) can0 7E0#0322128C00000000
(1700619495.537130) can0 7E8#0762128C000009D0
(1700619495.623675) can0 7DF#02010CAAAAAAAAAA
(1700619495.627173) can0 7E8#04410C0AD2000000
(1700619495.714521) can0 7E0#0322128C00000000
(1700619495.717325) can0 7E8#0762128C00000958
(1700619495.805451) can0 7DF#02010CAAAAAAAAAA
(1700619495.807071) can0 7E8#04410C0AC4000000
(1700619495.896281) can0 7E0#0322128C00000000
(1700619495.907364) can0 7E8#0762128C0000090D
(1700619495.987190) can0 7DF#02010CAAAAAAAAAA
(1700619495.997051) can0 7E8#04410C0B30000000
(1700619496.078074) can0 7E0#0322128C00000000
(1700619496.087201) can0 7E8#0762128C000008E4
(1700619496.168979) can0 7DF#02010CAAAAAAAAAA
(1700619496.177173) can0 7E8#04410C0BD4000000
(1700619496.259806) can0 7E0#0322128C00000000
(1700619496.267158) can0 7E8#0762128C00000840
(1700619496.350748) can0 7DF#02010CAAAAAAAAAA
(1700619496.357031) can0 7E8#04410C0C2E000000
(1700619496.441547) can0 7E0#0322128C00000000
(1700619496.447179) can0 7E8#0762128C00000700
(1700619496.532476) can0 7DF#02010CAAAAAAAAAA
(1700619496.537285) can0 7E8#04410C109C000000
(1700619496.623271) can0 7E0#0322128C00000000
(1700619496.627154) can0 7E8#0762128C000004FA
(1700619496.714223) can0 7DF#02010CAAAAAAAAAA
(1700619496.717013) can0 7E8#04410C109C000000
(1700619496.805074) can0 7E0#0322128C00000000
(1700619496.807073) can0 7E8#0762128C00000449
(1700619496.895982) can0 7DF#02010CAAAAAAAAAA
(1700619496.897017) can0 7E8#04410C0FC6000000
(1700619496.986750) can0 7E0#0322128C00000000
(1700619496.997081) can0 7E8#0762128C0000043E
(1700619497.077670) can0 7DF#02010CAAAAAAAAAA
(1700619497.086975) can0 7E8#04410C1016000000
(1700619497.168483) can0 7E0#0322128C00000000
(1700619497.177046) can0 7E8#0762128C00000502
(1700619497.259391) can0 7DF#02010CAAAAAAAAAA
(1700619497.266974) can0 7E8#04410C0FBC000000
(1700619497.350230) can0 7E0#0322128C00000000
(1700619497.357034) can0 7E8#0762128C0000065C
(1700619497.441179) can0 7DF#02010CAAAAAAAAAA
(1700619497.446977) can0 7E8#04410C1096000000
(1700619497.531976) can0 7E0#0322128C00000000
(1700619497.537176) can0 7E8#0762128C0000079C
(1700619497.622853) can0 7DF#02010CAAAAAAAAAA
(1700619497.626974) can0 7E8#04410C109C000000
(1700619497.713672) can0 7E0#0322128C00000000
(1700619497.717204) can0 7E8#0762128C00000CBB
(1700619497.804596) can0 7DF#02010CAAAAAAAAAA
(1700619497.806969) can0 7E8#04410C107C000000
(1700619497.895425) can0 7E0#0322128C00000000
(1700619497.896970) can0 7E8#0762128C00001335
(1700619497.986333) can0 7DF#02010CAAAAAAAAAA
(1700619497.997282) can0 7E8#04410C109A000000
(1700619498.077176) can0 7E0#0322128C00000000
(1700619498.087201) can0 7E8#0762128C0000125A
(1700619498.168129) can0 7DF#02010CAAAAAAAAAA
(1700619498.176890) can0 7E8#04410C111E000000
(1700619498.258978) can0 7E0#0322128C00000000
(1700619498.266973) can0 7E8#0762128C000011AE
(1700619498.349829) can0 7DF#02010CAAAAAAAAAA
(1700619498.356874) can0 7E8#04410C118C000000
(1700619498.440658) can0 7E0#0322128C00000000
(1700619498.447138) can0 7E8#0762128C0000118B
(1700619498.531573) can0 7DF#02010CAAAAAAAAAA
(1700619498.536880) can0 7E8#04410C11F2000000
(1700619498.622387) can0 7E0#0322128C00000000
(1700619498.627174) can0 7E8#0762128C0000117F
(1700619498.713325) can0 7DF#02010CAAAAAAAAAA
(1700619498.716860) can0 7E8#04410C11F2000000
(1700619498.804184) can0 7E0#0322128C00000000
(1700619498.806971) can0 7E8#0762128C00001183
(1700619498.895087) can0 7DF#02010CAAAAAAAAAA
(1700619498.896852) can0 7E8#04410C1272000000
(1700619498.985857) can0 7E0#0322128C00000000
(1700619498.986971) can0 7E8#0762128C00001179
(1700619499.076785) can0 7DF#02010CAAAAAAAAAA
(1700619499.086852) can0 7E8#04410C12FE000000
(1700619499.167601) can0 7E0#0322128C00000000
(1700619499.176890) can0 7E8#0762128C00001191
(1700619499.258517) can0 7DF#02010CAAAAAAAAAA
(1700619499.266975) can0 7E8#04410C1366000000
(1700619499.349326) can0 7E0#0322128C00000000
(1700619499.356879) can0 7E8#0762128C00001184
(1700619499.440268) can0 7DF#02010CAAAAAAAAAA
(1700619499.446832) can0 7E8#04410C13EE000000
(1700619499.531130) can0 7E0#0322128C00000000
(1700619499.536882) can0 7E8#0762128C000010B1
(1700619499.622032) can0 7DF#02010CAAAAAAAAAA
(1700619499.626825) can0 7E8#04410C147E000000
(1700619499.712823) can0 7E0#0322128C00000000
(1700619499.717099) can0 7E8#0762128C00001073
(1700619499.803741) can0 7DF#02010CAAAAAAAAAA
(1700619499.806798) can0 7E8#04410C14E6000000
(1700619499.894580) can0 7E0#0322128C00000000
(1700619499.896867) can0 7E8#0762128C00001044
(1700619499.985527) can0 7DF#02010CAAAAAAAAAA
(1700619499.986790) can0 7E8#04410C1552000000
(1700619500.076337) can0 7E0#0322128C00000000
(1700619500.086853) can0 7E8#0762128C00000FD0
(1700619500.167262) can0 7DF#02010CAAAAAAAAAA
(1700619500.176782) can0 7E8#04410C15D2000000
(1700619500.258128) can0 7E0#0322128C00000000
(1700619500.266849) can0 7E8#0762128C00000EE2
(1700619500.349071) can0 7DF#02010CAAAAAAAAAA
(1700619500.356787) can0 7E8#04410C1642000000
(1700619500.439854) can0 7E0#0322128C00000000
(1700619500.446826) can0 7E8#0762128C00000DDD
(1700619500.530774) can0 7DF#02010CAAAAAAAAAA
(1700619500.536763) can0 7E8#04410C1698000000
(1700619500.621611) can0 7E0#0322128C00000000
(1700619500.627022) can0 7E8#0762128C00000D02
(1700619500.712509) can0 7DF#02010CAAAAAAAAAA
(1700619500.716741) can0 7E8#04410C1698000000
(1700619500.803345) can0 7E0#0322128C00000000
(1700619500.806971) can0 7E8#0762128C00000C4A
(1700619500.894267) can0 7DF#02010CAAAAAAAAAA
(1700619500.896735) can0 7E8#04410C16FA000000
(1700619500.985107) can0 7E0#0322128C00000000
(1700619500.986799) can0 7E8#0762128C00000B98
(1700619501.076043) can0 7DF#02010CAAAAAAAAAA
(1700619501.086735) can0 7E8#04410C1752000000
(1700619501.166823) can0 7E0#0322128C00000000
(1700619501.176791) can0 7E8#0762128C00000AA2
(1700619501.257739) can0 7DF#02010CAAAAAAAAAA
(1700619501.266849) can0 7E8#04410C179E000000
(1700619501.348555) can0 7E0#0322128C00000000
(1700619501.356770) can0 7E8#0762128C00000B10
(1700619501.439472) can0 7DF#02010CAAAAAAAAAA
(1700619501.446724) can0 7E8#04410C17E4000000
(1700619501.530287) can0 7E0#0322128C00000000
(1700619501.536763) can0 7E8#0762128C00000A9C
(1700619501.621199) can0 7DF#02010CAAAAAAAAAA
(1700619501.626724) can0 7E8#04410C181A000000
(1700619501.712041) can0 7E0#0322128C00000000
(1700619501.716973) can0 7E8#0762128C00000A56
(1700619501.802968) can0 7DF#02010CAAAAAAAAAA
(1700619501.806699) can0 7E8#04410C183E000000
(1700619501.893764) can0 7E0#0322128C00000000
(1700619501.896750) can0 7E8#0762128C00000A4F
(1700619501.984653) can0 7DF#02010CAAAAAAAAAA
(1700619501.986675) can0 7E8#04410C187E000000
(1700619502.075492) can0 7E0#0322128C00000000
(1700619502.076971) can0 7E8#0762128C00000A62
(1700619502.166400) can0 7DF#02010CAAAAAAAAAA
(1700619502.176670) can0 7E8#04410C18BA000000
(1700619502.257223) can0 7E0#0322128C00000000
(1700619502.266724) can0 7E8#0762128C00000A9D
(1700619502.348173) can0 7DF#02010CAAAAAAAAAA
(1700619502.356666) can0 7E8#04410C18F2000000
(1700619502.438982) can0 7E0#0322128C00000000
(1700619502.446722) can0 7E8#0762128C00000AC0
(1700619502.529905) can0 7DF#02010CAAAAAAAAAA
(1700619502.536651) can0 7E8#04410C194E000000
(1700619502.620733) can0 7E0#0322128C00000000
(1700619502.626724) can0 7E8#0762128C00000AE3
(1700619502.711624) can0 7DF#02010CAAAAAAAAAA
(1700619502.716659) can0 7E8#04410C194E000000
(1700619502.802467) can0 7E0#0322128C00000000
(1700619502.806974) can0 7E8#0762128C00000B56
(1700619502.893405) can0 7DF#02010CAAAAAAAAAA
(1700619502.897098) can0 7E8#04410C1988000000
(1700619502.984214) can0 7E0#0322128C00000000
(1700619502.986886) can0 7E8#0762128C00000B69
(1700619503.075205) can0 7DF#02010CAAAAAAAAAA
(1700619503.076772) can0 7E8#04410C19CA000000
(1700619503.166015) can0 7E0#0322128C00000000
(1700619503.176975) can0 7E8#0762128C000007B1
(1700619503.256889) can0 7DF#02010CAAAAAAAAAA
(1700619503.266611) can0 7E8#04410C19D6000000
(1700619503.347729) can0 7E0#0322128C00000000
(1700619503.356782) can0 7E8#0762128C000004D3
(1700619503.438610) can0 7DF#02010CAAAAAAAAAA
(1700619503.446620) can0 7E8#04410C183C000000
(1700619503.529454) can0 7E0#0322128C00000000
(1700619503.536826) can0 7E8#0762128C00000413
(1700619503.620349) can0 7DF#02010CAAAAAAAAAA
(1700619503.626700) can0 7E8#04410C163C000000
(1700619503.711175) can0 7E0#0322128C00000000
(1700619503.716851) can0 7E8#0762128C000003BB
(1700619503.802117) can0 7DF#02010CAAAAAAAAAA
(1700619503.806621) can0 7E8#04410C1350000000
(1700619503.892981) can0 7E0#0322128C00000000
(1700619503.896650) can0 7E8#0762128C000003B2
(1700619503.983819) can0 7DF#02010CAAAAAAAAAA
(1700619503.986630) can0 7E8#04410C11C8000000
(1700619504.074658) can0 7E0#0322128C00000000
(1700619504.076630) can0 7E8#0762128C00000783
(1700619504.165582) can0 7DF#02010CAAAAAAAAAA
(1700619504.166572) can0 7E8#04410C14BC000000
(1700619504.256402) can0 7E0#0322128C00000000
(1700619504.266881) can0 7E8#0762128C00000AC4
(1700619504.347328) can0 7DF#02010CAAAAAAAAAA
(1700619504.356541) can0 7E8#04410C1384000000
(1700619504.438177) can0 7E0#0322128C00000000
(1700619504.446628) can0 7E8#0762128C00000B9C
(1700619504.529120) can0 7DF#02010CAAAAAAAAAA
(1700619504.536535) can0 7E8#04410C136A000000
(1700619504.619972) can0 7E0#0322128C00000000
(1700619504.626650) can0 7E8#0762128C00000CD2
(1700619504.710847) can0 7DF#02010CAAAAAAAAAA
(1700619504.716532) can0 7E8#04410C136A000000
(1700619504.801659) can0 7E0#0322128C00000000
(1700619504.806600) can0 7E8#0762128C00000D2F
(1700619504.892579) can0 7DF#02010CAAAAAAAAAA
(1700619504.896529) can0 7E8#04410C13B4000000
(1700619504.983406) can0 7E0#0322128C00000000
(1700619504.986627) can0 7E8#0762128C00000E1E
(1700619505.074297) can0 7DF#02010CAAAAAAAAAA
(1700619505.076829) can0 7E8#04410C1412000000
(1700619505.165179) can0 7E0#0322128C00000000
(1700619505.166570) can0 7E8#0762128C00000E36
(1700619505.256105) can0 7DF#02010CAAAAAAAAAA
(1700619505.266504) can0 7E8#04410C13FE000000
(1700619505.346896) can0 7E0#0322128C00000000
(1700619505.356659) can0 7E8#0762128C00000E1F
(1700619505.437799) can0 7DF#02010CAAAAAAAAAA
(1700619505.446542) can0 7E8#04410C1450000000
(1700619505.528628) can0 7E0#0322128C00000000
(1700619505.536710) can0 7E8#0762128C00000D8E
(1700619505.619534) can0 7DF#02010CAAAAAAAAAA
(1700619505.626576) can0 7E8#04410C1476000000
(1700619505.710370) can0 7E0#0322128C00000000
(1700619505.716974) can0 7E8#0762128C00000D0D
(1700619505.801297) can0 7DF#02010CAAAAAAAAAA
(1700619505.806670) can0 7E8#04410C14B6000000
(1700619505.892150) can0 7E0#0322128C00000000
(1700619505.896733) can0 7E8#0762128C00000C94
(1700619505.983088) can0 7DF#02010CAAAAAAAAAA
(1700619505.986665) can0 7E8#04410C14CA000000
(1700619506.073851) can0 7E0#0322128C00000000
(1700619506.076650) can0 7E8#0762128C00000BB7
(1700619506.164777) can0 7DF#02010CAAAAAAAAAA
(1700619506.166849) can0 7E8#04410C14F8000000
(1700619506.255601) can0 7E0#0322128C00000000
(1700619506.266499) can0 7E8#0762128C00000A57
(1700619506.346502) can0 7DF#02010CAAAAAAAAAA
(1700619506.356455) can0 7E8#04410C1516000000
(1700619506.437335) can0 7E0#0322128C00000000
(1700619506.446538) can0 7E8#0762128C000008FA
(1700619506.528233) can0 7DF#02010CAAAAAAAAAA
(1700619506.536428) can0 7E8#04410C1548000000
(1700619506.619099) can0 7E0#0322128C00000000
(1700619506.626665) can0 7E8#0762128C000007B6
(1700619506.710009) can0 7DF#02010CAAAAAAAAAA
(1700619506.716725) can0 7E8#04410C1548000000
(1700619506.800811) can0 7E0#0322128C00000000
(1700619506.806697) can0 7E8#0762128C0000060D
(1700619506.891726) can0 7DF#02010CAAAAAAAAAA
(1700619506.896669) can0 7E8#04410C1548000000
(1700619506.982522) can0 7E0#0322128C00000000
(1700619506.986640) can0 7E8#0762128C00000551
(1700619507.073432) can0 7DF#02010CAAAAAAAAAA
(1700619507.076393) can0 7E8#04410C1538000000
(1700619507.164262) can0 7E0#0322128C00000000
(1700619507.166471) can0 7E8#0762128C000004E0
(1700619507.255199) can0 7DF#02010CAAAAAAAAAA
(1700619507.256397) can0 7E8#04410C154A000000
(1700619507.346044) can0 7E0#0322128C00000000
(1700619507.356531) can0 7E8#0762128C0000042A
(1700619507.436973) can0 7DF#02010CAAAAAAAAAA
(1700619507.446452) can0 7E8#04410C1538000000
(1700619507.527753) can0 7E0#0322128C00000000
(1700619507.536446) can0 7E8#0762128C00000396
(1700619507.618669) can0 7DF#02010CAAAAAAAAAA
(1700619507.626650) can0 7E8#04410C1472000000
(1700619507.709498) can0 7E0#0322128C00000000
(1700619507.716428) can0 7E8#0762128C00000324
(1700619507.800399) can0 7DF#02010CAAAAAAAAAA
(1700619507.806356) can0 7E8#04410C14E4000000
(1700619507.891233) can0 7E0#0322128C00000000
(1700619507.896628) can0 7E8#0762128C000002E0
(1700619507.982170) can0 7DF#02010CAAAAAAAAAA
(1700619507.986354) can0 7E8#04410C14DA000000
(1700619508.072981) can0 7E0#0322128C00000000
(1700619508.076420) can0 7E8#0762128C000003CE
(1700619508.163879) can0 7DF#02010CAAAAAAAAAA
(1700619508.166490) can0 7E8#04410C14D2000000
(1700619508.254698) can0 7E0#0322128C00000000
(1700619508.256576) can0 7E8#0762128C00000487
(1700619508.345612) can0 7DF#02010CAAAAAAAAAA
(1700619508.356337) can0 7E8#04410C14F8000000
(1700619508.436428) can0 7E0#0322128C00000000
(1700619508.446381) can0 7E8#0762128C0000055B
(1700619508.527347) can0 7DF#02010CAAAAAAAAAA
(1700619508.536351) can0 7E8#04410C14A4000000
(1700619508.618177) can0 7E0#0322128C00000000
(1700619508.626374) can0 7E8#0762128C00000590
(1700619508.709126) can0 7DF#02010CAAAAAAAAAA
(1700619508.716349) can0 7E8#04410C14A4000000
(1700619508.799974) can0 7E0#0322128C00000000
(1700619508.806354) can0 7E8#0762128C000005B4
(1700619508.890827) can0 7DF#02010CAAAAAAAAAA
(1700619508.896284) can0 7E8#04410C14A6000000
(1700619508.981645) can0 7E0#0322128C00000000
(1700619508.986391) can0 7E8#0762128C000005B3
(1700619509.072528) can0 7DF#02010CAAAAAAAAAA
(1700619509.076287) can0 7E8#04410C1488000000
(1700619509.163360) can0 7E0#0322128C00000000
(1700619509.166348) can0 7E8#0762128C0000052B
(1700619509.254303) can0 7DF#02010CAAAAAAAAAA
(1700619509.256279) can0 7E8#04410C145E000000
(1700619509.345152) can0 7E0#0322128C00000000
(1700619509.346345) can0 7E8#0762128C0000041F
(1700619509.436076) can0 7DF#02010CAAAAAAAAAA
(1700619509.446253) can0 7E8#04410C1436000000
(1700619509.526865) can0 7E0#0322128C00000000
(1700619509.536352) can0 7E8#0762128C00000454
(1700619509.617799) can0 7DF#02010CAAAAAAAAAA
(1700619509.626263) can0 7E8#04410C1434000000
(1700619509.708627) can0 7E0#0322128C00000000
(1700619509.716325) can0 7E8#0762128C00000439
(1700619509.799551) can0 7DF#02010CAAAAAAAAAA
(1700619509.806246) can0 7E8#04410C1430000000
(1700619509.890381) can0 7E0#0322128C00000000
(1700619509.896325) can0 7E8#0762128C0000039D
(1700619509.981263) can0 7DF#02010CAAAAAAAAAA
(1700619509.986232) can0 7E8#04410C1340000000
(1700619510.072149) can0 7E0#0322128C00000000
(1700619510.076292) can0 7E8#0762128C0000030B
(1700619510.163048) can0 7DF#02010CAAAAAAAAAA
(1700619510.166224) can0 7E8#04410C13EA000000
(1700619510.253851) can0 7E0#0322128C00000000
(1700619510.256291) can0 7E8#0762128C000002CE
(1700619510.344742) can0 7DF#02010CAAAAAAAAAA
(1700619510.346220) can0 7E8#04410C13AE000000
(1700619510.435576) can0 7E0#0322128C00000000
(1700619510.446271) can0 7E8#0762128C000002A6
(1700619510.526507) can0 7DF#02010CAAAAAAAAAA
(1700619510.536224) can0 7E8#04410C13A2000000
(1700619510.617332) can0 7E0#0322128C00000000
(1700619510.626472) can0 7E8#0762128C000002D4
(1700619510.708233) can0 7DF#02010CAAAAAAAAAA
(1700619510.716224) can0 7E8#04410C13A2000000
(1700619510.799100) can0 7E0#0322128C00000000
(1700619510.806444) can0 7E8#0762128C0000046C
(1700619510.890022) can0 7DF#02010CAAAAAAAAAA
(1700619510.896201) can0 7E8#04410C13AE000000
(1700619510.980814) can0 7E0#0322128C00000000
(1700619510.986302) can0 7E8#0762128C00000473
(1700619511.071729) can0 7DF#02010CAAAAAAAAAA
(1700619511.076175) can0 7E8#04410C13AC000000
(1700619511.162530) can0 7E0#0322128C00000000
(1700619511.166244) can0 7E8#0762128C000004D3
(1700619511.253449) can0 7DF#02010CAAAAAAAAAA
(1700619511.256178) can0 7E8#04410C1346000000
(1700619511.344278) can0 7E0#0322128C00000000
(1700619511.346231) can0 7E8#0762128C0000065F
(1700619511.435204) can0 7DF#02010CAAAAAAAAAA
(1700619511.436172) can0 7E8#04410C133C000000
(1700619511.526081) can0 7E0#0322128C00000000
(1700619511.536218) can0 7E8#0762128C00000954
(1700619511.616979) can0 7DF#02010CAAAAAAAAAA
(1700619511.626171) can0 7E8#04410C1326000000
(1700619511.707778) can0 7E0#0322128C00000000
(1700619511.716451) can0 7E8#0762128C00000A0C
(1700619511.798675) can0 7DF#02010CAAAAAAAAAA
(1700619511.806169) can0 7E8#04410C1354000000
(1700619511.889499) can0 7E0#0322128C00000000
(1700619511.896493) can0 7E8#0762128C00000A92
(1700619511.980404) can0 7DF#02010CAAAAAAAAAA
(1700619511.986152) can0 7E8#04410C1358000000
(1700619512.071229) can0 7E0#0322128C00000000
(1700619512.076379) can0 7E8#0762128C00000B5F
(1700619512.162172) can0 7DF#02010CAAAAAAAAAA
(1700619512.166148) can0 7E8#04410C135C000000
(1700619512.252973) can0 7E0#0322128C00000000
(1700619512.256177) can0 7E8#0762128C00000BA1
(1700619512.343864) can0 7DF#02010CAAAAAAAAAA
(1700619512.346386) can0 7E8#04410C1370000000
(1700619512.434677) can0 7E0#0322128C00000000
(1700619512.436179) can0 7E8#0762128C00000AB5
(1700619512.525619) can0 7DF#02010CAAAAAAAAAA
(1700619512.536295) can0 7E8#04410C1384000000
(1700619512.616449) can0 7E0#0322128C00000000
(1700619512.626177) can0 7E8#0762128C00000A23
(1700619512.707368) can0 7DF#02010CAAAAAAAAAA
(1700619512.716117) can0 7E8#04410C1384000000
(1700619512.798188) can0 7E0#0322128C00000000
(1700619512.806168) can0 7E8#0762128C000009B1
(1700619512.889142) can0 7DF#02010CAAAAAAAAAA
(1700619512.896534) can0 7E8#04410C13A0000000
(1700619512.979983) can0 7E0#0322128C00000000
(1700619512.986181) can0 7E8#0762128C00000907
(1700619513.070851) can0 7DF#02010CAAAAAAAAAA
(1700619513.076104) can0 7E8#04410C13B2000000
(1700619513.161671) can0 7E0#0322128C00000000
(1700619513.166159) can0 7E8#0762128C00000700
(1700619513.252600) can0 7DF#02010CAAAAAAAAAA
(1700619513.256098) can0 7E8#04410C13A4000000
(1700619513.343427) can0 7E0#0322128C00000000
(1700619513.346174) can0 7E8#0762128C000004C1
(1700619513.434325) can0 7DF#02010CAAAAAAAAAA
(1700619513.436075) can0 7E8#04410C13B6000000
(1700619513.525174) can0 7E0#0322128C00000000
(1700619513.536243) can0 7E8#0762128C000003F3
(1700619513.616120) can0 7DF#02010CAAAAAAAAAA
(1700619513.626077) can0 7E8#04410C13DC000000
(1700619513.706980) can0 7E0#0322128C00000000
(1700619513.716149) can0 7E8#0762128C00000375
(1700619513.797853) can0 7DF#02010CAAAAAAAAAA
(1700619513.806076) can0 7E8#04410C1372000000
(1700619513.888667) can0 7E0#0322128C00000000
(1700619513.896116) can0 7E8#0762128C000002FD
(1700619513.979558) can0 7DF#02010CAAAAAAAAAA
(1700619513.986041) can0 7E8#04410C1384000000
(1700619514.070401) can0 7E0#0322128C00000000
(1700619514.076108) can0 7E8#0762128C000002AA
(1700619514.161320) can0 7DF#02010CAAAAAAAAAA
(1700619514.166031) can0 7E8#04410C13A6000000
(1700619514.252199) can0 7E0#0322128C00000000
(1700619514.256178) can0 7E8#0762128C00000291
(1700619514.343101) can0 7DF#02010CAAAAAAAAAA
(1700619514.346018) can0 7E8#04410C1360000000
(1700619514.433892) can0 7E0#0322128C00000000
(1700619514.436100) can0 7E8#0762128C00000288
(1700619514.524792) can0 7DF#02010CAAAAAAAAAA
(1700619514.526020) can0 7E8#04410C1330000000
(1700619514.615627) can0 7E0#0322128C00000000
(1700619514.626076) can0 7E8#0762128C00000272
(1700619514.706519) can0 7DF#02010CAAAAAAAAAA
(1700619514.715971) can0 7E8#04410C1330000000
(1700619514.797360) can0 7E0#0322128C00000000
(1700619514.806076) can0 7E8#0762128C0000025E
(1700619514.888270) can0 7DF#02010CAAAAAAAAAA
(1700619514.895974) can0 7E8#04410C1356000000
(1700619514.979135) can0 7E0#0322128C00000000
(1700619514.986051) can0 7E8#0762128C00000259
(1700619515.070031) can0 7DF#02010CAAAAAAAAAA
(1700619515.075976) can0 7E8#04410C130E000000
(1700619515.160852) can0 7E0#0322128C00000000
(1700619515.166330) can0 7E8#0762128C00000000
(1700619515.251705) can0 7DF#02010CAAAAAAAAAA
(1700619515.255974) can0 7E8#04410C12FE000000
(1700619515.342524) can0 7E0#0322128C00000000
(1700619515.346041) can0 7E8#0762128C00000000
(1700619515.433398) can0 7DF#02010CAAAAAAAAAA
(1700619515.435970) can0 7E8#04410C12A2000000
(1700619515.524232) can0 7E0#0322128C00000000
(1700619515.526035) can0 7E8#0762128C00000000
(1700619515.615128) can0 7DF#02010CAAAAAAAAAA
(1700619515.625979) can0 7E8#04410C126A000000
(1700619515.705980) can0 7E0#0322128C00000000
(1700619515.716021) can0 7E8#0762128C00000000
(1700619515.796828) can0 7DF#02010CAAAAAAAAAA
(1700619515.805974) can0 7E8#04410C122C000000
(1700619515.887629) can0 7E0#0322128C00000000
(1700619515.895974) can0 7E8#0762128C00000000
(1700619515.978505) can0 7DF#02010CAAAAAAAAAA
(1700619515.985900) can0 7E8#04410C11F0000000
(1700619516.069324) can0 7E0#0322128C00000000
(1700619516.075974) can0 7E8#0762128C00000000
(1700619516.165889) can0 7E8#04410C11A4000000
(1700619516.251076) can0 7E0#0322128C00000000
(1700619516.255974) can0 7E8#0762128C00000000
(1700619516.341899) can0 7DF#02010CAAAAAAAAAA
(1700619516.346181) can0 7E8#04410C1172000000
(1700619516.432723) can0 7E0#0322128C00000000
(1700619516.435972) can0 7E8#0762128C00000334
(1700619516.523618) can0 7DF#02010CAAAAAAAAAA
(1700619516.525857) can0 7E8#04410C10D2000000
(1700619516.614470) can0 7E0#0322128C00000000
(1700619516.616351) can0 7E8#0762128C0000031E
(1700619516.705379) can0 7DF#02010CAAAAAAAAAA
(1700619516.715850) can0 7E8#04410C10D2000000
(1700619516.796230) can0 7E0#0322128C00000000
(1700619516.806075) can0 7E8#0762128C00000321
(1700619516.887173) can0 7DF#02010CAAAAAAAAAA
(1700619516.895863) can0 7E8#04410C1164000000
(1700619516.977963) can0 7E0#0322128C00000000
(1700619516.985975) can0 7E8#0762128C00000306
(1700619517.068875) can0 7DF#02010CAAAAAAAAAA
(1700619517.076076) can0 7E8#04410C10CA000000
(1700619517.159703) can0 7E0#0322128C00000000
(1700619517.165890) can0 7E8#0762128C000003CF
(1700619517.250601) can0 7DF#02010CAAAAAAAAAA
(1700619517.255851) can0 7E8#04410C0DC8000000
(1700619517.341419) can0 7E0#0322128C00000000
(1700619517.345897) can0 7E8#0762128C00000503
(1700619517.432348) can0 7DF#02010CAAAAAAAAAA
(1700619517.435827) can0 7E8#04410C0C40000000
(1700619517.523177) can0 7E0#0322128C00000000
(1700619517.526097) can0 7E8#0762128C0000089A
(1700619517.614109) can0 7DF#02010CAAAAAAAAAA
(1700619517.615803) can0 7E8#04410C0BAE000000
(1700619517.704898) can0 7E0#0322128C00000000
(1700619517.715863) can0 7E8#0762128C000007EA
(1700619517.795858) can0 7DF#02010CAAAAAAAAAA
(1700619517.805809) can0 7E8#04410C0B66000000
(1700619517.886637) can0 7E0#0322128C00000000
(1700619517.896095) can0 7E8#0762128C000008BB
(1700619517.977569) can0 7DF#02010CAAAAAAAAAA
(1700619517.985804) can0 7E8#04410C0B82000000
(1700619518.068366) can0 7E0#0322128C00000000
(1700619518.075975) can0 7E8#0762128C000008B4
(1700619518.159259) can0 7DF#02010CAAAAAAAAAA
(1700619518.165776) can0 7E8#04410C0BFE000000
(1700619518.250136) can0 7E0#0322128C00000000
(1700619518.255858) can0 7E8#0762128C00000820
(1700619518.341050) can0 7DF#02010CAAAAAAAAAA
(1700619518.345762) can0 7E8#04410C0C08000000
(1700619518.431850) can0 7E0#0322128C00000000
(1700619518.435825) can0 7E8#0762128C0000078C
(1700619518.522769) can0 7DF#02010CAAAAAAAAAA
(1700619518.525973) can0 7E8#04410C0BFC000000
(1700619518.613610) can0 7E0#0322128C00000000
(1700619518.615823) can0 7E8#0762128C0000071D
(1700619518.704489) can0 7DF#02010CAAAAAAAAAA
(1700619518.705749) can0 7E8#04410C0BFC000000
(1700619518.795326) can0 7E0#0322128C00000000
(1700619518.805798) can0 7E8#0762128C000006DE
(1700619518.886258) can0 7DF#02010CAAAAAAAAAA
(1700619518.895744) can0 7E8#04410C0BD4000000
(1700619518.977122) can0 7E0#0322128C00000000
(1700619518.985789) can0 7E8#0762128C0000066D
(1700619519.068039) can0 7DF#02010CAAAAAAAAAA
(1700619519.076224) can0 7E8#04410C0C26000000
(1700619519.158852) can0 7E0#0322128C00000000
(1700619519.165775) can0 7E8#0762128C00000655
(1700619519.249768) can0 7DF#02010CAAAAAAAAAA
(1700619519.255735) can0 7E8#04410C0C14000000
(1700619519.340601) can0 7E0#0322128C00000000
(1700619519.345974) can0 7E8#0762128C00000652
(1700619519.431515) can0 7DF#02010CAAAAAAAAAA
(1700619519.435723) can0 7E8#04410C0BEE000000
(1700619519.522354) can0 7E0#0322128C00000000
(1700619519.525764) can0 7E8#0762128C00000634
(1700619519.613246) can0 7DF#02010CAAAAAAAAAA
(1700619519.615724) can0 7E8#04410C0BBE000000
(1700619519.704122) can0 7E0#0322128C00000000
(1700619519.705752) can0 7E8#0762128C00000629
(1700619519.795042) can0 7DF#02010CAAAAAAAAAA
(1700619519.805703) can0 7E8#04410C0BB8000000
(1700619519.885830) can0 7E0#0322128C00000000
(1700619519.895749) can0 7E8#0762128C00000615
(1700619519.976735) can0 7DF#02010CAAAAAAAAAA
(1700619519.985668) can0 7E8#04410C0B94000000
(1700619520.067551) can0 7E0#0322128C00000000
(1700619520.075741) can0 7E8#0762128C0000060C
(1700619520.158473) can0 7DF#02010CAAAAAAAAAA
(1700619520.165668) can0 7E8#04410C0B82000000
(1700619520.249296) can0 7E0#0322128C00000000
(1700619520.255724) can0 7E8#0762128C0000061E
(1700619520.340199) can0 7DF#02010CAAAAAAAAAA
(1700619520.345658) can0 7E8#04410C0BA2000000
(1700619520.431051) can0 7E0#0322128C00000000
(1700619520.435726) can0 7E8#0762128C00000642
(1700619520.521973) can0 7DF#02010CAAAAAAAAAA
(1700619520.525647) can0 7E8#04410C0BA4000000
(1700619520.612774) can0 7E0#0322128C00000000
(1700619520.615700) can0 7E8#0762128C0000064A
(1700619520.703701) can0 7DF#02010CAAAAAAAAAA
(1700619520.705629) can0 7E8#04410C0BA4000000
(1700619520.794517) can0 7E0#0322128C00000000
(1700619520.796139) can0 7E8#0762128C00000635
(1700619520.885460) can0 7DF#02010CAAAAAAAAAA
(1700619520.895619) can0 7E8#04410C0B74000000
(1700619520.976266) can0 7E0#0322128C00000000
(1700619520.985674) can0 7E8#0762128C0000062C
(1700619521.067201) can0 7DF#02010CAAAAAAAAAA
(1700619521.075828) can0 7E8#04410C0B96000000
(1700619521.158038) can0 7E0#0322128C00000000
(1700619521.165670) can0 7E8#0762128C00000627
(1700619521.248973) can0 7DF#02010CAAAAAAAAAA
(1700619521.255609) can0 7E8#04410C0BA6000000
(1700619521.339761) can0 7E0#0322128C00000000
(1700619521.345669) can0 7E8#0762128C000005CF
(1700619521.430659) can0 7DF#02010CAAAAAAAAAA
(1700619521.435601) can0 7E8#04410C0BCA000000
(1700619521.521491) can0 7E0#0322128C00000000
(1700619521.525659) can0 7E8#0762128C0000058A
(1700619521.612471) can0 7DF#02010CAAAAAAAAAA
(1700619521.615598) can0 7E8#04410C0B7C000000
(1700619521.703224) can0 7E0#0322128C00000000
(1700619521.705645) can0 7E8#0762128C0000056F
(1700619521.794182) can0 7DF#02010CAAAAAAAAAA
(1700619521.795578) can0 7E8#04410C0B40000000
(1700619521.885015) can0 7E0#0322128C00000000
(1700619521.895628) can0 7E8#0762128C00000573
(1700619521.975871) can0 7DF#02010CAAAAAAAAAA
(1700619521.985573) can0 7E8#04410C0B52000000
(1700619522.066727) can0 7E0#0322128C00000000
(1700619522.075620) can0 7E8#0762128C00000574
(1700619522.157620) can0 7DF#02010CAAAAAAAAAA
(1700619522.165579) can0 7E8#04410C0B4C000000
(1700619522.248449) can0 7E0#0322128C00000000
(1700619522.255619) can0 7E8#0762128C0000058E
(1700619522.339360) can0 7DF#02010CAAAAAAAAAA
(1700619522.345544) can0 7E8#04410C0BB0000000
(1700619522.430179) can0 7E0#0322128C00000000
(1700619522.435600) can0 7E8#0762128C00000593
(1700619522.521143) can0 7DF#02010CAAAAAAAAAA
(1700619522.525602) can0 7E8#04410C0B7C000000
(1700619522.611974) can0 7E0#0322128C00000000
(1700619522.615610) can0 7E8#0762128C00000581
(1700619522.705521) can0 7E8#04410C0B7C000000
(1700619522.793653) can0 7E0#0322128C00000000
(1700619522.805587) can0 7E8#0762128C0000056F
(1700619522.884580) can0 7DF#02010CAAAAAAAAAA
(1700619522.885534) can0 7E8#04410C0BAC000000
(1700619522.975395) can0 7E0#0322128C00000000
(1700619522.985578) can0 7E8#0762128C0000054E
(1700619523.066287) can0 7DF#02010CAAAAAAAAAA
(1700619523.075507) can0 7E8#04410C0B48000000
(1700619523.157151) can0 7E0#0322128C00000000
(1700619523.165578) can0 7E8#0762128C0000053F
(1700619523.248040) can0 7DF#02010CAAAAAAAAAA
(1700619523.255493) can0 7E8#04410C0B60000000
(1700619523.338833) can0 7E0#0322128C00000000
(1700619523.345542) can0 7E8#0762128C00000542
(1700619523.429734) can0 7DF#02010CAAAAAAAAAA
(1700619523.435475) can0 7E8#04410C0B66000000
(1700619523.520573) can0 7E0#0322128C00000000
(1700619523.525551) can0 7E8#0762128C00000542
(1700619523.611473) can0 7DF#02010CAAAAAAAAAA
(1700619523.615472) can0 7E8#04410C0B5E000000
(1700619523.702291) can0 7E0#0322128C00000000
(1700619523.705522) can0 7E8#0762128C00000545
(1700619523.793224) can0 7DF#02010CAAAAAAAAAA
(1700619523.795473) can0 7E8#04410C0B5C000000
(1700619523.884084) can0 7E0#0322128C00000000
(1700619523.885527) can0 7E8#0762128C00000547
(1700619523.974989) can0 7DF#02010CAAAAAAAAAA
(1700619523.985651) can0 7E8#04410C0B46000000
(1700619524.065771) can0 7E0#0322128C00000000
(1700619524.075734) can0 7E8#0762128C00000548
(1700619524.156680) can0 7DF#02010CAAAAAAAAAA
(1700619524.165451) can0 7E8#04410C0B2C000000
(1700619524.247490) can0 7E0#0322128C00000000
(1700619524.255501) can0 7E8#0762128C00000545
(1700619524.338396) can0 7DF#02010CAAAAAAAAAA
(1700619524.345430) can0 7E8#04410C0B1C000000
(1700619524.429222) can0 7E0#0322128C00000000
(1700619524.435482) can0 7E8#0762128C00000550
(1700619524.520169) can0 7DF#02010CAAAAAAAAAA
(1700619524.525430) can0 7E8#04410C0B18000000
(1700619524.610980) can0 7E0#0322128C00000000
(1700619524.615697) can0 7E8#0762128C0000054D
(1700619524.701881) can0 7DF#02010CAAAAAAAAAA
(1700619524.705419) can0 7E8#04410C0B18000000
(1700619524.792699) can0 7E0#0322128C00000000
(1700619524.805475) can0 7E8#0762128C00000555
(1700619524.883633) can0 7DF#02010CAAAAAAAAAA
(1700619524.885414) can0 7E8#04410C0B10000000
(1700619524.974492) can0 7E0#0322128C00000000
(1700619524.975476) can0 7E8#0762128C00000553
(1700619525.065370) can0 7DF#02010CAAAAAAAAAA
(1700619525.075415) can0 7E8#04410C0B2C000000
(1700619525.156201) can0 7E0#0322128C00000000
(1700619525.165451) can0 7E8#0762128C00000562
(1700619525.247166) can0 7DF#02010CAAAAAAAAAA
(1700619525.255390) can0 7E8#04410C0B22000000
(1700619525.337973) can0 7E0#0322128C00000000
(1700619525.345427) can0 7E8#0762128C00000564
(1700619525.428887) can0 7DF#02010CAAAAAAAAAA
(1700619525.435474) can0 7E8#04410C0B3C000000
(1700619525.519720) can0 7E0#0322128C00000000
(1700619525.525428) can0 7E8#0762128C0000055E
(1700619525.610650) can0 7DF#02010CAAAAAAAAAA
(1700619525.615347) can0 7E8#04410C0B32000000
(1700619525.701482) can0 7E0#0322128C00000000
(1700619525.705541) can0 7E8#0762128C00000560
(1700619525.792369) can0 7DF#02010CAAAAAAAAAA
(1700619525.795860) can0 7E8#04410C0B32000000
(1700619525.883205) can0 7E0#0322128C00000000
(1700619525.885424) can0 7E8#0762128C0000055A
(1700619525.974138) can0 7DF#02010CAAAAAAAAAA
(1700619525.975352) can0 7E8#04410C0B16000000
(1700619526.064980) can0 7E0#0322128C00000000
(1700619526.075421) can0 7E8#0762128C0000056D
(1700619526.155848) can0 7DF#02010CAAAAAAAAAA
(1700619526.165325) can0 7E8#04410C0B12000000
(1700619526.246674) can0 7E0#0322128C00000000
(1700619526.255473) can0 7E8#0762128C00000571
(1700619526.337578) can0 7DF#02010CAAAAAAAAAA
(1700619526.345330) can0 7E8#04410C0B16000000
(1700619526.428406) can0 7E0#0322128C00000000
(1700619526.435381) can0 7E8#0762128C00000574
(1700619526.519323) can0 7DF#02010CAAAAAAAAAA
(1700619526.525326) can0 7E8#04410C0B12000000
(1700619526.610168) can0 7E0#0322128C00000000
(1700619526.615615) can0 7E8#0762128C00000575
(1700619526.701080) can0 7DF#02010CAAAAAAAAAA
(1700619526.705302) can0 7E8#04410C0B12000000
(1700619526.791859) can0 7E0#0322128C00000000
(1700619526.795360) can0 7E8#0762128C00000575
(1700619526.882771) can0 7DF#02010CAAAAAAAAAA
(1700619526.885324) can0 7E8#04410C0B2C000000
(1700619526.973590) can0 7E0#0322128C00000000
(1700619526.975601) can0 7E8#0762128C00000571
(1700619527.064489) can0 7DF#02010CAAAAAAAAAA
(1700619527.075273) can0 7E8#04410C0B2E000000
(1700619527.155305) can0 7E0#0322128C00000000
(1700619527.165325) can0 7E8#0762128C0000056C
(1700619527.246232) can0 7DF#02010CAAAAAAAAAA
(1700619527.255263) can0 7E8#04410C0B3E000000
(1700619527.337080) can0 7E0#0322128C00000000
(1700619527.345487) can0 7E8#0762128C00000565
(1700619527.427975) can0 7DF#02010CAAAAAAAAAA
(1700619527.435293) can0 7E8#04410C0B3C000000
(1700619527.518779) can0 7E0#0322128C00000000
(1700619527.525330) can0 7E8#0762128C00000566
(1700619527.609721) can0 7DF#02010CAAAAAAAAAA
(1700619527.615244) can0 7E8#04410C0B2C000000
(1700619527.700540) can0 7E0#0322128C00000000
(1700619527.705724) can0 7E8#0762128C00000565
(1700619527.791451) can0 7DF#02010CAAAAAAAAAA
(1700619527.795240) can0 7E8#04410C0B30000000
(1700619527.882265) can0 7E0#0322128C00000000
(1700619527.885302) can0 7E8#0762128C00000560
(1700619527.973191) can0 7DF#02010CAAAAAAAAAA
(1700619527.975222) can0 7E8#04410C0B36000000
(1700619528.064037) can0 7E0#0322128C00000000
(1700619528.065323) can0 7E8#0762128C0000055F
(1700619528.154974) can0 7DF#02010CAAAAAAAAAA
(1700619528.165332) can0 7E8#04410C0B3A000000
(1700619528.245762) can0 7E0#0322128C00000000
(1700619528.255262) can0 7E8#0762128C0000055E
(1700619528.336648) can0 7DF#02010CAAAAAAAAAA
(1700619528.345200) can0 7E8#04410C0B50000000
(1700619528.427473) can0 7E0#0322128C00000000
(1700619528.435482) can0 7E8#0762128C0000055A
(1700619528.518403) can0 7DF#02010CAAAAAAAAAA
(1700619528.525200) can0 7E8#04410C0B52000000
(1700619528.609234) can0 7E0#0322128C00000000
(1700619528.615253) can0 7E8#0762128C0000055C
(1700619528.700167) can0 7DF#02010CAAAAAAAAAA
(1700619528.705200) can0 7E8#04410C0B52000000
(1700619528.790971) can0 7E0#0322128C00000000
(1700619528.795271) can0 7E8#0762128C0000055E
(1700619528.881867) can0 7DF#02010CAAAAAAAAAA
(1700619528.885175) can0 7E8#04410C0B24000000
(1700619528.972688) can0 7E0#0322128C00000000
(1700619528.975229) can0 7E8#0762128C0000055E
(1700619529.063623) can0 7DF#02010CAAAAAAAAAA
(1700619529.065257) can0 7E8#04410C0B20000000
(1700619529.154452) can0 7E0#0322128C00000000
(1700619529.165225) can0 7E8#0762128C00000560
(1700619529.245364) can0 7DF#02010CAAAAAAAAAA
(1700619529.255178) can0 7E8#04410C0B24000000
(1700619529.336199) can0 7E0#0322128C00000000
(1700619529.345221) can0 7E8#0762128C0000055B
(1700619529.427120) can0 7DF#02010CAAAAAAAAAA
(1700619529.435176) can0 7E8#04410C0B32000000
(1700619529.517968) can0 7E0#0322128C00000000
(1700619529.525325) can0 7E8#0762128C00000568
(1700619529.608858) can0 7DF#02010CAAAAAAAAAA
(1700619529.615168) can0 7E8#04410C0B2C000000
(1700619529.699699) can0 7E0#0322128C00000000
(1700619529.705199) can0 7E8#0762128C00000566
(1700619529.790577) can0 7DF#02010CAAAAAAAAAA
(1700619529.795161) can0 7E8#04410C0B2A000000
(1700619529.881417) can0 7E0#0322128C00000000
(1700619529.885199) can0 7E8#0762128C00000564
(1700619529.972337) can0 7DF#02010CAAAAAAAAAA
(1700619529.975176) can0 7E8#04410C0B4A000000
(1700619530.063183) can0 7E0#0322128C00000000
(1700619530.065172) can0 7E8#0762128C0000055E
(1700619530.154071) can0 7DF#02010CAAAAAAAAAA
(1700619530.165146) can0 7E8#04410C0B4E000000
(1700619530.244863) can0 7E0#0322128C00000000
(1700619530.255178) can0 7E8#0762128C00000568
(1700619530.335770) can0 7DF#02010CAAAAAAAAAA
(1700619530.345129) can0 7E8#04410C0B42000000
(1700619530.426600) can0 7E0#0322128C00000000
(1700619530.435179) can0 7E8#0762128C0000057F
(1700619530.517510) can0 7DF#02010CAAAAAAAAAA
(1700619530.525122) can0 7E8#04410C0B30000000
(1700619530.608353) can0 7E0#0322128C00000000
(1700619530.615169) can0 7E8#0762128C0000055E
(1700619530.699257) can0 7DF#02010CAAAAAAAAAA
(1700619530.705111) can0 7E8#04410C0B30000000
(1700619530.790106) can0 7E0#0322128C00000000
(1700619530.795159) can0 7E8#0762128C00000555
(1700619530.881009) can0 7DF#02010CAAAAAAAAAA
(1700619530.885102) can0 7E8#04410C0B14000000
(1700619530.971789) can0 7E0#0322128C00000000
(1700619530.975157) can0 7E8#0762128C00000623
(1700619531.062725) can0 7DF#02010CAAAAAAAAAA
(1700619531.065102) can0 7E8#04410C0AFE000000
(1700619531.153547) can0 7E0#0322128C00000000
(1700619531.155140) can0 7E8#0762128C00000635
(1700619531.244450) can0 7DF#02010CAAAAAAAAAA
(1700619531.255078) can0 7E8#04410C0B22000000
(1700619531.335272) can0 7E0#0322128C00000000
(1700619531.345128) can0 7E8#0762128C00000634
(1700619531.426177) can0 7DF#02010CAAAAAAAAAA
(1700619531.435075) can0 7E8#04410C0B14000000
(1700619531.517057) can0 7E0#0322128C00000000
(1700619531.525115) can0 7E8#0762128C00000621
(1700619531.607974) can0 7DF#02010CAAAAAAAAAA
(1700619531.615052) can0 7E8#04410C0B1C000000
(1700619531.698752) can0 7E0#0322128C00000000
(1700619531.705112) can0 7E8#0762128C00000627
(1700619531.789698) can0 7DF#02010CAAAAAAAAAA
(1700619531.795508) can0 7E8#04410C0B4A000000
(1700619531.880519) can0 7E0#0322128C00000000
(1700619531.885101) can0 7E8#0762128C0000062A
(1700619531.971493) can0 7DF#02010CAAAAAAAAAA
(1700619531.975031) can0 7E8#04410C0B36000000
(1700619532.062280) can0 7E0#0322128C00000000
(1700619532.065103) can0 7E8#0762128C0000063D
(1700619532.153200) can0 7DF#02010CAAAAAAAAAA
(1700619532.155043) can0 7E8#04410C0B22000000
(1700619532.244078) can0 7E0#0322128C00000000
(1700619532.245098) can0 7E8#0762128C00000635
(1700619532.334973) can0 7DF#02010CAAAAAAAAAA
(1700619532.345013) can0 7E8#04410C0B1E000000
(1700619532.425757) can0 7E0#0322128C00000000
(1700619532.435075) can0 7E8#0762128C00000625
(1700619532.516677) can0 7DF#02010CAAAAAAAAAA
(1700619532.524973) can0 7E8#04410C0B0A000000
(1700619532.607504) can0 7E0#0322128C00000000
(1700619532.615076) can0 7E8#0762128C00000626
(1700619532.698406) can0 7DF#02010CAAAAAAAAAA
(1700619532.704974) can0 7E8#04410C0B0A000000
(1700619532.789233) can0 7E0#0322128C00000000
(1700619532.795056) can0 7E8#0762128C0000062A
(1700619532.880177) can0 7DF#02010CAAAAAAAAAA
(1700619532.884974) can0 7E8#04410C0B36000000
(1700619532.971020) can0 7E0#0322128C00000000
(1700619532.975221) can0 7E8#0762128C0000063A
(1700619533.061902) can0 7DF#02010CAAAAAAAAAA
(1700619533.064975) can0 7E8#04410C0B22000000
(1700619533.152728) can0 7E0#0322128C00000000
(1700619533.155071) can0 7E8#0762128C00000633
(1700619533.243647) can0 7DF#02010CAAAAAAAAAA
(1700619533.244971) can0 7E8#04410C0B3C000000
(1700619533.334475) can0 7E0#0322128C00000000
(1700619533.345101) can0 7E8#0762128C00000637
(1700619533.425373) can0 7DF#02010CAAAAAAAAAA
(1700619533.434974) can0 7E8#04410C0B32000000
(1700619533.516226) can0 7E0#0322128C00000000
(1700619533.525011) can0 7E8#0762128C0000063C
(1700619533.607140) can0 7DF#02010CAAAAAAAAAA
(1700619533.614974) can0 7E8#04410C0B44000000
(1700619533.697980) can0 7E0#0322128C00000000
(1700619533.704973) can0 7E8#0762128C00000631
(1700619533.788858) can0 7DF#02010CAAAAAAAAAA
(1700619533.794900) can0 7E8#04410C0B3C000000
(1700619533.879698) can0 7E0#0322128C00000000
(1700619533.885178) can0 7E8#0762128C00000637
(1700619533.970614) can0 7DF#02010CAAAAAAAAAA
(1700619533.974893) can0 7E8#04410C0B34000000
(1700619534.061459) can0 7E0#0322128C00000000
(1700619534.064971) can0 7E8#0762128C00000632
(1700619534.152370) can0 7DF#02010CAAAAAAAAAA
(1700619534.154886) can0 7E8#04410C0B34000000
(1700619534.243229) can0 7E0#0322128C00000000
(1700619534.244971) can0 7E8#0762128C00000633
(1700619534.334138) can0 7DF#02010CAAAAAAAAAA
(1700619534.345098) can0 7E8#04410C0B42000000
(1700619534.424972) can0 7E0#0322128C00000000
(1700619534.435200) can0 7E8#0762128C00000632
(1700619534.515864) can0 7DF#02010CAAAAAAAAAA
(1700619534.524849) can0 7E8#04410C0B52000000
(1700619534.606702) can0 7E0#0322128C00000000
(1700619534.614975) can0 7E8#0762128C0000062C
(1700619534.697582) can0 7DF#02010CAAAAAAAAAA
(1700619534.704851) can0 7E8#04410C0B52000000
(1700619534.788418) can0 7E0#0322128C00000000
(1700619534.794899) can0 7E8#0762128C0000062B
(1700619534.879329) can0 7DF#02010CAAAAAAAAAA
(1700619534.885075) can0 7E8#04410C0B40000000
(1700619534.970168) can0 7E0#0322128C00000000
(1700619534.974974) can0 7E8#0762128C0000062F
(1700619535.061072) can0 7DF#02010CAAAAAAAAAA
(1700619535.064826) can0 7E8#04410C0B2C000000
(1700619535.151855) can0 7E0#0322128C00000000
(1700619535.154876) can0 7E8#0762128C0000062D
(1700619535.242802) can0 7DF#02010CAAAAAAAAAA
(1700619535.244826) can0 7E8#04410C0AFC000000
(1700619535.333623) can0 7E0#0322128C00000000
(1700619535.334890) can0 7E8#0762128C00000625
(1700619535.424551) can0 7DF#02010CAAAAAAAAAA
(1700619535.434863) can0 7E8#04410C0B0E000000
(1700619535.515380) can0 7E0#0322128C00000000
(1700619535.524869) can0 7E8#0762128C00000631
(1700619535.606284) can0 7DF#02010CAAAAAAAAAA
(1700619535.614801) can0 7E8#04410C0B3E000000
(1700619535.697147) can0 7E0#0322128C00000000
(1700619535.704872) can0 7E8#0762128C0000062F
(1700619535.788074) can0 7DF#02010CAAAAAAAAAA
(1700619535.794798) can0 7E8#04410C0B40000000
(1700619535.878866) can0 7E0#0322128C00000000
(1700619535.884852) can0 7E8#0762128C0000062C
(1700619535.969779) can0 7DF#02010CAAAAAAAAAA
(1700619535.974774) can0 7E8#04410C0B2E000000
(1700619536.060617) can0 7E0#0322128C00000000
(1700619536.065023) can0 7E8#0762128C00000630
(1700619536.151507) can0 7DF#02010CAAAAAAAAAA
(1700619536.155107) can0 7E8#04410C0B50000000
(1700619536.242328) can0 7E0#0322128C00000000
(1700619536.244849) can0 7E8#0762128C0000063E
(1700619536.333243) can0 7DF#02010CAAAAAAAAAA
(1700619536.334759) can0 7E8#04410C0B56000000
(1700619536.424108) can0 7E0#0322128C00000000
(1700619536.434825) can0 7E8#0762128C00000642
(1700619536.515038) can0 7DF#02010CAAAAAAAAAA
(1700619536.524758) can0 7E8#04410C0B3A000000
(1700619536.605824) can0 7E0#0322128C00000000
(1700619536.614824) can0 7E8#0762128C00000649
(1700619536.696731) can0 7DF#02010CAAAAAAAAAA
(1700619536.704734) can0 7E8#04410C0B3A000000
(1700619536.787574) can0 7E0#0322128C00000000
(1700619536.794791) can0 7E8#0762128C0000062A
(1700619536.878470) can0 7DF#02010CAAAAAAAAAA
(1700619536.884721) can0 7E8#04410C0B2E000000
(1700619536.969289) can0 7E0#0322128C00000000
(1700619536.974778) can0 7E8#0762128C0000062B
(1700619537.060230) can0 7DF#02010CAAAAAAAAAA
(1700619537.064974) can0 7E8#04410C0B2C000000
(1700619537.151071) can0 7E0#0322128C00000000
(1700619537.155229) can0 7E8#0762128C00000634
(1700619537.241973) can0 7DF#02010CAAAAAAAAAA
(1700619537.244700) can0 7E8#04410C0B5A000000
(1700619537.332770) can0 7E0#0322128C00000000
(1700619537.335171) can0 7E8#0762128C0000062F
(1700619537.423666) can0 7DF#02010CAAAAAAAAAA
(1700619537.424720) can0 7E8#04410C0B30000000
(1700619537.514501) can0 7E0#0322128C00000000
(1700619537.524781) can0 7E8#0762128C00000632
(1700619537.605428) can0 7DF#02010CAAAAAAAAAA
(1700619537.614701) can0 7E8#04410C0B40000000
(1700619537.696262) can0 7E0#0322128C00000000
(1700619537.704741) can0 7E8#0762128C00000629
(1700619537.787174) can0 7DF#02010CAAAAAAAAAA
(1700619537.794678) can0 7E8#04410C0B36000000
(1700619537.878030) can0 7E0#0322128C00000000
(1700619537.884733) can0 7E8#0762128C00000628
(1700619537.968958) can0 7DF#02010CAAAAAAAAAA
(1700619537.974659) can0 7E8#04410C0B18000000
(1700619538.059742) can0 7E0#0322128C00000000
(1700619538.064736) can0 7E8#0762128C0000062C
(1700619538.150651) can0 7DF#02010CAAAAAAAAAA
(1700619538.154827) can0 7E8#04410C0B12000000
(1700619538.241482) can0 7E0#0322128C00000000
(1700619538.244725) can0 7E8#0762128C00000616
(1700619538.332411) can0 7DF#02010CAAAAAAAAAA
(1700619538.334642) can0 7E8#04410C0B0A000000
(1700619538.423229) can0 7E0#0322128C00000000
(1700619538.424721) can0 7E8#0762128C0000060E
(1700619538.514185) can0 7DF#02010CAAAAAAAAAA
(1700619538.524647) can0 7E8#04410C0B14000000
(1700619538.604974) can0 7E0#0322128C00000000
(1700619538.614701) can0 7E8#0762128C00000621
(1700619538.695879) can0 7DF#02010CAAAAAAAAAA
(1700619538.704831) can0 7E8#04410C0B14000000
(1700619538.786701) can0 7E0#0322128C00000000
(1700619538.795734) can0 7E8#0762128C0000062C
(1700619538.877603) can0 7DF#02010CAAAAAAAAAA
(1700619538.884611) can0 7E8#04410C0B1E000000
(1700619538.968436) can0 7E0#0322128C00000000
(1700619538.974676) can0 7E8#0762128C00000626
(1700619539.059336) can0 7DF#02010CAAAAAAAAAA
(1700619539.064602) can0 7E8#04410C0B36000000
(1700619539.150178) can0 7E0#0322128C00000000
(1700619539.154659) can0 7E8#0762128C0000062D
(1700619539.241116) can0 7DF#02010CAAAAAAAAAA
(1700619539.244603) can0 7E8#04410C0B2C000000
(1700619539.331972) can0 7E0#0322128C00000000
(1700619539.334845) can0 7E8#0762128C00000627
(1700619539.422865) can0 7DF#02010CAAAAAAAAAA
(1700619539.424602) can0 7E8#04410C0AFE000000
(1700619539.513641) can0 7E0#0322128C00000000
(1700619539.524642) can0 7E8#0762128C00000638
(1700619539.604579) can0 7DF#02010CAAAAAAAAAA
(1700619539.614600) can0 7E8#04410C0B02000000
(1700619539.695387) can0 7E0#0322128C00000000
(1700619539.704633) can0 7E8#0762128C00000625
(1700619539.786299) can0 7DF#02010CAAAAAAAAAA
(1700619539.794576) can0 7E8#04410C0B24000000
(1700619539.877157) can0 7E0#0322128C00000000
(1700619539.884851) can0 7E8#0762128C0000062E
(1700619539.968086) can0 7DF#02010CAAAAAAAAAA
(1700619539.974727) can0 7E8#04410C0B2E000000
(1700619540.058879) can0 7E0#0322128C00000000
(1700619540.064622) can0 7E8#0762128C0000062C
(1700619540.149781) can0 7DF#02010CAAAAAAAAAA
(1700619540.154542) can0 7E8#04410C0B2E000000
(1700619540.240615) can0 7E0#0322128C00000000
(1700619540.244600) can0 7E8#0762128C0000062C
(1700619540.331538) can0 7DF#02010CAAAAAAAAAA
(1700619540.334529) can0 7E8#04410C0B0A000000
(1700619540.422376) can0 7E0#0322128C00000000
(1700619540.424601) can0 7E8#0762128C00000623
(1700619540.513276) can0 7DF#02010CAAAAAAAAAA
(1700619540.514728) can0 7E8#04410C0B0A000000
(1700619540.604137) can0 7E0#0322128C00000000
(1700619540.614582) can0 7E8#0762128C0000062E
(1700619540.695074) can0 7DF#02010CAAAAAAAAAA
(1700619540.704513) can0 7E8#04410C0B10000000
(1700619540.785857) can0 7E0#0322128C00000000
(1700619540.794575) can0 7E8#0762128C00000624
(1700619540.876777) can0 7DF#02010CAAAAAAAAAA
(1700619540.884504) can0 7E8#04410C0B0E000000
(1700619540.967589) can0 7E0#0322128C00000000
(1700619540.974576) can0 7E8#0762128C00000631
(1700619541.058516) can0 7DF#02010CAAAAAAAAAA
(1700619541.064509) can0 7E8#04410C0B18000000
(1700619541.149351) can0 7E0#0322128C00000000
(1700619541.154741) can0 7E8#0762128C00000627
(1700619541.240255) can0 7DF#02010CAAAAAAAAAA
(1700619541.244483) can0 7E8#04410C0AF2000000
(1700619541.331106) can0 7E0#0322128C00000000
(1700619541.334528) can0 7E8#0762128C00000613
(1700619541.422017) can0 7DF#02010CAAAAAAAAAA
(1700619541.424468) can0 7E8#04410C0B0C000000
(1700619541.512805) can0 7E0#0322128C00000000
(1700619541.514520) can0 7E8#0762128C00000614
(1700619541.603742) can0 7DF#02010CAAAAAAAAAA
(1700619541.614472) can0 7E8#04410C0B08000000
(1700619541.694576) can0 7E0#0322128C00000000
(1700619541.704724) can0 7E8#0762128C00000634
(1700619541.785488) can0 7DF#02010CAAAAAAAAAA
(1700619541.795100) can0 7E8#04410C0B0E000000
(1700619541.876290) can0 7E0#0322128C00000000
(1700619541.884519) can0 7E8#0762128C0000063A
(1700619541.967184) can0 7DF#02010CAAAAAAAAAA
(1700619541.974452) can0 7E8#04410C0B1A000000
(1700619542.058071) can0 7E0#0322128C00000000
(1700619542.064501) can0 7E8#0762128C00000645
(1700619542.148975) can0 7DF#02010CAAAAAAAAAA
(1700619542.154429) can0 7E8#04410C0B36000000
(1700619542.239778) can0 7E0#0322128C00000000
(1700619542.244493) can0 7E8#0762128C00000647
(1700619542.330698) can0 7DF#02010CAAAAAAAAAA
(1700619542.334616) can0 7E8#04410C0B20000000
(1700619542.421536) can0 7E0#0322128C00000000
(1700619542.424546) can0 7E8#0762128C00000644
(1700619542.512447) can0 7DF#02010CAAAAAAAAAA
(1700619542.524594) can0 7E8#04410C0B26000000
(1700619542.603284) can0 7E0#0322128C00000000
(1700619542.604480) can0 7E8#0762128C0000063C
(1700619542.694201) can0 7DF#02010CAAAAAAAAAA
(1700619542.704430) can0 7E8#04410C0B26000000
(1700619542.785055) can0 7E0#0322128C00000000
(1700619542.794475) can0 7E8#0762128C0000062B
(1700619542.875974) can0 7DF#02010CAAAAAAAAAA
(1700619542.884503) can0 7E8#04410C0B04000000
(1700619542.966758) can0 7E0#0322128C00000000
(1700619542.974451) can0 7E8#0762128C00000620
(1700619543.057681) can0 7DF#02010CAAAAAAAAAA
(1700619543.064378) can0 7E8#04410C0B20000000
(1700619543.148500) can0 7E0#0322128C00000000
(1700619543.154450) can0 7E8#0762128C00000621
(1700619543.239427) can0 7DF#02010CAAAAAAAAAA
(1700619543.244370) can0 7E8#04410C0B18000000
(1700619543.330252) can0 7E0#0322128C00000000
(1700619543.334428) can0 7E8#0762128C0000062E
(1700619543.421176) can0 7DF#02010CAAAAAAAAAA
(1700619543.424361) can0 7E8#04410C0B1A000000
(1700619543.512053) can0 7E0#0322128C00000000
(1700619543.514416) can0 7E8#0762128C00000638
(1700619543.602895) can0 7DF#02010CAAAAAAAAAA
(1700619543.604575) can0 7E8#04410C0B18000000
(1700619543.693723) can0 7E0#0322128C00000000
(1700619543.704430) can0 7E8#0762128C00000644
(1700619543.784627) can0 7DF#02010CAAAAAAAAAA
(1700619543.794348) can0 7E8#04410C0B10000000
(1700619543.875454) can0 7E0#0322128C00000000
(1700619543.884419) can0 7E8#0762128C00000645
(1700619543.966349) can0 7DF#02010CAAAAAAAAAA
(1700619543.974333) can0 7E8#04410C0B10000000
(1700619544.057196) can0 7E0#0322128C00000000
(1700619544.064396) can0 7E8#0762128C0000063E
(1700619544.148119) can0 7DF#02010CAAAAAAAAAA
(1700619544.154518) can0 7E8#04410C0B1C000000
(1700619544.238899) can0 7E0#0322128C00000000
(1700619544.244381) can0 7E8#0762128C00000636
(1700619544.329849) can0 7DF#02010CAAAAAAAAAA
(1700619544.334325) can0 7E8#04410C0B0C000000
(1700619544.420672) can0 7E0#0322128C00000000
(1700619544.424370) can0 7E8#0762128C0000063A
(1700619544.511601) can0 7DF#02010CAAAAAAAAAA
(1700619544.514298) can0 7E8#04410C0B0C000000
(1700619544.602418) can0 7E0#0322128C00000000
(1700619544.604430) can0 7E8#0762128C00000636
(1700619544.693350) can0 7DF#02010CAAAAAAAAAA
(1700619544.704513) can0 7E8#04410C0AF8000000
(1700619544.784185) can0 7E0#0322128C00000000
(1700619544.794850) can0 7E8#0762128C00000639
(1700619544.875128) can0 7DF#02010CAAAAAAAAAA
(1700619544.884284) can0 7E8#04410C0B2E000000
(1700619544.965962) can0 7E0#0322128C00000000
(1700619544.974349) can0 7E8#0762128C00000636
(1700619545.056828) can0 7DF#02010CAAAAAAAAAA
(1700619545.064266) can0 7E8#04410C0B0C000000
(1700619545.147667) can0 7E0#0322128C00000000
(1700619545.154332) can0 7E8#0762128C0000063C
(1700619545.238582) can0 7DF#02010CAAAAAAAAAA
(1700619545.244263) can0 7E8#04410C0AFC000000
(1700619545.329383) can0 7E0#0322128C00000000
(1700619545.334327) can0 7E8#0762128C00000638
(1700619545.420302) can0 7DF#02010CAAAAAAAAAA
(1700619545.424325) can0 7E8#04410C0B12000000
(1700619545.511175) can0 7E0#0322128C00000000
(1700619545.514871) can0 7E8#0762128C00000635
(1700619545.602098) can0 7DF#02010CAAAAAAAAAA
(1700619545.604233) can0 7E8#04410C0B0E000000
(1700619545.692879) can0 7E0#0322128C00000000
(1700619545.694287) can0 7E8#0762128C00000623
(1700619545.783783) can0 7DF#02010CAAAAAAAAAA
(1700619545.794227) can0 7E8#04410C0B28000000
(1700619545.874605) can0 7E0#0322128C00000000
(1700619545.884297) can0 7E8#0762128C0000060E
(1700619545.965556) can0 7DF#02010CAAAAAAAAAA
(1700619545.974230) can0 7E8#04410C0B1C000000
(1700619546.056363) can0 7E0#0322128C00000000
(1700619546.064269) can0 7E8#0762128C0000061E
(1700619546.147270) can0 7DF#02010CAAAAAAAAAA
(1700619546.154284) can0 7E8#04410C0B18000000
(1700619546.238127) can0 7E0#0322128C00000000
(1700619546.244263) can0 7E8#0762128C00000626
(1700619546.329031) can0 7DF#02010CAAAAAAAAAA
(1700619546.334200) can0 7E8#04410C0B2E000000
(1700619546.419836) can0 7E0#0322128C00000000
(1700619546.424252) can0 7E8#0762128C00000626
(1700619546.510766) can0 7DF#02010CAAAAAAAAAA
(1700619546.514200) can0 7E8#04410C0B2E000000
(1700619546.601579) can0 7E0#0322128C00000000
(1700619546.604302) can0 7E8#0762128C00000627
(1700619546.692473) can0 7DF#02010CAAAAAAAAAA
(1700619546.704178) can0 7E8#04410C0B26000000
(1700619546.783323) can0 7E0#0322128C00000000
(1700619546.794623) can0 7E8#0762128C00000625
(1700619546.874239) can0 7DF#02010CAAAAAAAAAA
(1700619546.884177) can0 7E8#04410C0B2E000000
(1700619546.965102) can0 7E0#0322128C00000000
(1700619546.974228) can0 7E8#0762128C00000631
(1700619547.056028) can0 7DF#02010CAAAAAAAAAA
(1700619547.064174) can0 7E8#04410C0B0E000000
(1700619547.146824) can0 7E0#0322128C00000000
(1700619547.154409) can0 7E8#0762128C00000630
(1700619547.237724) can0 7DF#02010CAAAAAAAAAA
(1700619547.244417) can0 7E8#04410C0B06000000
(1700619547.328551) can0 7E0#0322128C00000000
(1700619547.334227) can0 7E8#0762128C0000063C
(1700619547.419476) can0 7DF#02010CAAAAAAAAAA
(1700619547.424168) can0 7E8#04410C0B08000000
(1700619547.510296) can0 7E0#0322128C00000000
(1700619547.514202) can0 7E8#0762128C0000062C
(1700619547.601234) can0 7DF#02010CAAAAAAAAAA
(1700619547.604151) can0 7E8#04410C0B22000000
(1700619547.692080) can0 7E0#0322128C00000000
(1700619547.694196) can0 7E8#0762128C0000062A
(1700619547.782972) can0 7DF#02010CAAAAAAAAAA
(1700619547.784150) can0 7E8#04410C0B18000000
(1700619547.873762) can0 7E0#0322128C00000000
(1700619547.884177) can0 7E8#0762128C0000061F
(1700619547.964686) can0 7DF#02010CAAAAAAAAAA
(1700619547.974178) can0 7E8#04410C0B0A000000
(1700619548.055521) can0 7E0#0322128C00000000
(1700619548.064176) can0 7E8#0762128C0000062C
(1700619548.146418) can0 7DF#02010CAAAAAAAAAA
(1700619548.154178) can0 7E8#04410C0B0A000000
(1700619548.237242) can0 7E0#0322128C00000000
(1700619548.244177) can0 7E8#0762128C0000061E
(1700619548.328173) can0 7DF#02010CAAAAAAAAAA
(1700619548.334178) can0 7E8#04410C0B10000000
(1700619548.419048) can0 7E0#0322128C00000000
(1700619548.424351) can0 7E8#0762128C00000620
(1700619548.509973) can0 7DF#02010CAAAAAAAAAA
(1700619548.515021) can0 7E8#04410C0B10000000
(1700619548.604176) can0 7E8#0762128C00000619
(1700619548.691642) can0 7DF#02010CAAAAAAAAAA
(1700619548.694174) can0 7E8#04410C0B20000000
(1700619548.782473) can0 7E0#0322128C00000000
(1700619548.784159) can0 7E8#0762128C0000061F
(1700619548.873359) can0 7DF#02010CAAAAAAAAAA
(1700619548.884102) can0 7E8#04410C0B16000000
(1700619548.964188) can0 7E0#0322128C00000000
(1700619548.974420) can0 7E8#0762128C00000618
(1700619549.055164) can0 7DF#02010CAAAAAAAAAA
(1700619549.064081) can0 7E8#04410C0B10000000
(1700619549.145973) can0 7E0#0322128C00000000
(1700619549.154733) can0 7E8#0762128C0000061E
(1700619549.236873) can0 7DF#02010CAAAAAAAAAA
(1700619549.244075) can0 7E8#04410C0B1A000000
(1700619549.327728) can0 7E0#0322128C00000000
(1700619549.334178) can0 7E8#0762128C00000618
(1700619549.418641) can0 7DF#02010CAAAAAAAAAA
(1700619549.424048) can0 7E8#04410C0B14000000
(1700619549.509473) can0 7E0#0322128C00000000
(1700619549.514176) can0 7E8#0762128C00000622
(1700619549.600394) can0 7DF#02010CAAAAAAAAAA
(1700619549.604077) can0 7E8#04410C0B08000000
(1700619549.691221) can0 7E0#0322128C00000000
(1700619549.694275) can0 7E8#0762128C00000613
(1700619549.782174) can0 7DF#02010CAAAAAAAAAA
(1700619549.784033) can0 7E8#04410C0B1C000000
(1700619549.872969) can0 7E0#0322128C00000000
(1700619549.884108) can0 7E8#0762128C0000061B
(1700619549.963870) can0 7DF#02010CAAAAAAAAAA
(1700619549.974076) can0 7E8#04410C0B30000000
(1700619550.054726) can0 7E0#0322128C00000000
(1700619550.064100) can0 7E8#0762128C0000060E
(1700619550.145614) can0 7DF#02010CAAAAAAAAAA
(1700619550.154021) can0 7E8#04410C0B1A000000
(1700619550.236428) can0 7E0#0322128C00000000
(1700619550.244075) can0 7E8#0762128C00000623
(1700619550.327375) can0 7DF#02010CAAAAAAAAAA
(1700619550.334199) can0 7E8#04410C0B16000000
(1700619550.418200) can0 7E0#0322128C00000000
(1700619550.424075) can0 7E8#0762128C00000625
(1700619550.509134) can0 7DF#02010CAAAAAAAAAA
(1700619550.514010) can0 7E8#04410C0B16000000
(1700619550.599974) can0 7E0#0322128C00000000
(1700619550.604075) can0 7E8#0762128C00000626
(1700619550.690825) can0 7DF#02010CAAAAAAAAAA
(1700619550.693975) can0 7E8#04410C0B0C000000
(1700619550.781650) can0 7E0#0322128C00000000
(1700619550.784048) can0 7E8#0762128C0000061D
(1700619550.872573) can0 7DF#02010CAAAAAAAAAA
(1700619550.874348) can0 7E8#04410C0B16000000
(1700619550.963368) can0 7E0#0322128C00000000
(1700619550.974105) can0 7E8#0762128C0000061E
(1700619551.054325) can0 7DF#02010CAAAAAAAAAA
(1700619551.063976) can0 7E8#04410C0B2A000000
(1700619551.145168) can0 7E0#0322128C00000000
(1700619551.154017) can0 7E8#0762128C00000622
(1700619551.236079) can0 7DF#02010CAAAAAAAAAA
(1700619551.243974) can0 7E8#04410C0B3A000000
(1700619551.326867) can0 7E0#0322128C00000000
(1700619551.334176) can0 7E8#0762128C0000061D
(1700619551.417766) can0 7DF#02010CAAAAAAAAAA
(1700619551.424359) can0 7E8#04410C0B2C000000
(1700619551.508607) can0 7E0#0322128C00000000
(1700619551.515575) can0 7E8#0762128C0000061E
(1700619551.599511) can0 7DF#02010CAAAAAAAAAA
(1700619551.603975) can0 7E8#04410C0B20000000
(1700619551.690355) can0 7E0#0322128C00000000
(1700619551.693975) can0 7E8#0762128C00000614
(1700619551.781269) can0 7DF#02010CAAAAAAAAAA
(1700619551.783971) can0 7E8#04410C0B14000000
(1700619551.872130) can0 7E0#0322128C00000000
(1700619551.874196) can0 7E8#0762128C00000620
(1700619551.963021) can0 7DF#02010CAAAAAAAAAA
(1700619551.974431) can0 7E8#04410C0B20000000
(1700619552.053830) can0 7E0#0322128C00000000
(1700619552.063974) can0 7E8#0762128C000005F3
(1700619552.144733) can0 7DF#02010CAAAAAAAAAA
(1700619552.153975) can0 7E8#04410C0B8C000000
(1700619552.235574) can0 7E0#0322128C00000000
(1700619552.243974) can0 7E8#0762128C000016BB
(1700619552.326495) can0 7DF#02010CAAAAAAAAAA
(1700619552.333851) can0 7E8#04410C0E3C000000
(1700619552.417330) can0 7E0#0322128C00000000
(1700619552.423973) can0 7E8#0762128C0000114E
(1700619552.508230) can0 7DF#02010CAAAAAAAAAA
(1700619552.514180) can0 7E8#04410C0E3C000000
(1700619552.599079) can0 7E0#0322128C00000000
(1700619552.603976) can0 7E8#0762128C00001069
(1700619552.689978) can0 7DF#02010CAAAAAAAAAA
(1700619552.693975) can0 7E8#04410C1A90000000
(1700619552.780796) can0 7E0#0322128C00000000
(1700619552.783972) can0 7E8#0762128C000011A0
(1700619552.871703) can0 7DF#02010CAAAAAAAAAA
(1700619552.883974) can0 7E8#04410C1974000000
(1700619552.962534) can0 7E0#0322128C00000000
(1700619552.963972) can0 7E8#0762128C00000B05
(1700619553.053450) can0 7DF#02010CAAAAAAAAAA
(1700619553.063976) can0 7E8#04410C140A000000
(1700619553.144271) can0 7E0#0322128C00000000
(1700619553.153975) can0 7E8#0762128C00000B37
(1700619553.235179) can0 7DF#02010CAAAAAAAAAA
(1700619553.244102) can0 7E8#04410C148A000000
(1700619553.326038) can0 7E0#0322128C00000000
(1700619553.333861) can0 7E8#0762128C00000AAC
(1700619553.416975) can0 7DF#02010CAAAAAAAAAA
(1700619553.423864) can0 7E8#04410C12D0000000
(1700619553.507749) can0 7E0#0322128C00000000
(1700619553.514390) can0 7E8#0762128C00000C0F
(1700619553.598676) can0 7DF#02010CAAAAAAAAAA
(1700619553.603974) can0 7E8#04410C0F46000000
(1700619553.689519) can0 7E0#0322128C00000000
(1700619553.694053) can0 7E8#0762128C00000EF0
(1700619553.780460) can0 7DF#02010CAAAAAAAAAA
(1700619553.783975) can0 7E8#04410C1356000000
(1700619553.871270) can0 7E0#0322128C00000000
(1700619553.876101) can0 7E8#0762128C00000A3F
(1700619553.962186) can0 7DF#02010CAAAAAAAAAA
(1700619553.964049) can0 7E8#04410C13E8000000
(1700619554.053081) can0 7E0#0322128C00000000
(1700619554.063975) can0 7E8#0762128C000009A5
(1700619554.143974) can0 7DF#02010CAAAAAAAAAA
(1700619554.154200) can0 7E8#04410C168C000000
(1700619554.234777) can0 7E0#0322128C00000000
(1700619554.243871) can0 7E8#0762128C00000BCB
(1700619554.325700) can0 7DF#02010CAAAAAAAAAA
(1700619554.334018) can0 7E8#04410C1866000000
(1700619554.416513) can0 7E0#0322128C00000000
(1700619554.424042) can0 7E8#0762128C00000A05
(1700619554.507428) can0 7DF#02010CAAAAAAAAAA
(1700619554.514010) can0 7E8#04410C1866000000
(1700619554.598251) can0 7E0#0322128C00000000
(1700619554.603974) can0 7E8#0762128C00000947
(1700619554.689175) can0 7DF#02010CAAAAAAAAAA
(1700619554.693975) can0 7E8#04410C19E2000000
(1700619554.780021) can0 7E0#0322128C00000000
(1700619554.784020) can0 7E8#0762128C00000861
(1700619554.870886) can0 7DF#02010CAAAAAAAAAA
(1700619554.874118) can0 7E8#04410C1BD0000000
(1700619554.961733) can0 7E0#0322128C00000000
(1700619554.963978) can0 7E8#0762128C000007BE
(1700619555.052634) can0 7DF#02010CAAAAAAAAAA
(1700619555.064036) can0 7E8#04410C1D12000000
(1700619555.143474) can0 7E0#0322128C00000000
(1700619555.154032) can0 7E8#0762128C0000073F
(1700619555.234344) can0 7DF#02010CAAAAAAAAAA
(1700619555.243900) can0 7E8#04410C1E44000000
(1700619555.325205) can0 7E0#0322128C00000000
(1700619555.333879) can0 7E8#0762128C00000981
(1700619555.416146) can0 7DF#02010CAAAAAAAAAA
(1700619555.423893) can0 7E8#04410C2054000000
(1700619555.506978) can0 7E0#0322128C00000000
(1700619555.515178) can0 7E8#0762128C00000B19
(1700619555.597852) can0 7DF#02010CAAAAAAAAAA
(1700619555.603974) can0 7E8#04410C21B6000000
(1700619555.688680) can0 7E0#0322128C00000000
(1700619555.694033) can0 7E8#0762128C000009C1
(1700619555.779621) can0 7DF#02010CAAAAAAAAAA
(1700619555.784022) can0 7E8#04410C23E2000000
(1700619555.870427) can0 7E0#0322128C00000000
(1700619555.874179) can0 7E8#0762128C000007FE
(1700619555.961348) can0 7DF#02010CAAAAAAAAAA
(1700619555.964034) can0 7E8#04410C2504000000
(1700619556.052198) can0 7E0#0322128C00000000
(1700619556.054115) can0 7E8#0762128C0000049E
(1700619556.143119) can0 7DF#02010CAAAAAAAAAA
(1700619556.154083) can0 7E8#04410C2488000000
(1700619556.233970) can0 7E0#0322128C00000000
(1700619556.243900) can0 7E8#0762128C00000380
(1700619556.324829) can0 7DF#02010CAAAAAAAAAA
(1700619556.333892) can0 7E8#04410C20DC000000
(1700619556.415647) can0 7E0#0322128C00000000
(1700619556.423900) can0 7E8#0762128C00000347
(1700619556.506550) can0 7DF#02010CAAAAAAAAAA
(1700619556.514075) can0 7E8#04410C20DC000000
(1700619556.597388) can0 7E0#0322128C00000000
(1700619556.603975) can0 7E8#0762128C000002E2
(1700619556.688329) can0 7DF#02010CAAAAAAAAAA
(1700619556.694051) can0 7E8#04410C1D1C000000
(1700619556.779173) can0 7E0#0322128C00000000
(1700619556.784052) can0 7E8#0762128C000002B6
(1700619556.870073) can0 7DF#02010CAAAAAAAAAA
(1700619556.874200) can0 7E8#04410C1978000000
(1700619556.960849) can0 7E0#0322128C00000000
(1700619556.963971) can0 7E8#0762128C00000347
(1700619557.051781) can0 7DF#02010CAAAAAAAAAA
(1700619557.054099) can0 7E8#04410C1596000000
(1700619557.142625) can0 7E0#0322128C00000000
(1700619557.143973) can0 7E8#0762128C0000074C
(1700619557.233518) can0 7DF#02010CAAAAAAAAAA
(1700619557.243974) can0 7E8#04410C1372000000
(1700619557.324352) can0 7E0#0322128C00000000
(1700619557.333969) can0 7E8#0762128C0000087C
(1700619557.415270) can0 7DF#02010CAAAAAAAAAA
(1700619557.423974) can0 7E8#04410C149C000000
(1700619557.506134) can0 7E0#0322128C00000000
(1700619557.514600) can0 7E8#0762128C00000917
(1700619557.597055) can0 7DF#02010CAAAAAAAAAA
(1700619557.603974) can0 7E8#04410C153A000000
(1700619557.687850) can0 7E0#0322128C00000000
(1700619557.694051) can0 7E8#0762128C00000915
(1700619557.778792) can0 7DF#02010CAAAAAAAAAA
(1700619557.784052) can0 7E8#04410C14EE000000
(1700619557.869612) can0 7E0#0322128C00000000
(1700619557.874276) can0 7E8#0762128C000008EE
(1700619557.960492) can0 7DF#02010CAAAAAAAAAA
(1700619557.964019) can0 7E8#04410C14D6000000
(1700619558.051350) can0 7E0#0322128C00000000
(1700619558.054104) can0 7E8#0762128C00000980
(1700619558.142267) can0 7DF#02010CAAAAAAAAAA
(1700619558.143974) can0 7E8#04410C1548000000
(1700619558.233136) can0 7E0#0322128C00000000
(1700619558.244098) can0 7E8#0762128C00000A9E
(1700619558.324048) can0 7DF#02010CAAAAAAAAAA
(1700619558.334046) can0 7E8#04410C15C0000000
(1700619558.414861) can0 7E0#0322128C00000000
(1700619558.423975) can0 7E8#0762128C00000A5B
(1700619558.505779) can0 7DF#02010CAAAAAAAAAA
(1700619558.514098) can0 7E8#04410C15C0000000
(1700619558.596607) can0 7E0#0322128C00000000
(1700619558.604022) can0 7E8#0762128C00000801
(1700619558.687540) can0 7DF#02010CAAAAAAAAAA
(1700619558.694075) can0 7E8#04410C1624000000
(1700619558.778376) can0 7E0#0322128C00000000
(1700619558.784079) can0 7E8#0762128C0000068F
(1700619558.869307) can0 7DF#02010CAAAAAAAAAA
(1700619558.874177) can0 7E8#04410C1648000000
(1700619558.960153) can0 7E0#0322128C00000000
(1700619558.964048) can0 7E8#0762128C000005DA
(1700619559.051073) can0 7DF#02010CAAAAAAAAAA
(1700619559.054101) can0 7E8#04410C1694000000
(1700619559.141871) can0 7E0#0322128C00000000
(1700619559.143974) can0 7E8#0762128C000005FE
(1700619559.232791) can0 7DF#02010CAAAAAAAAAA
(1700619559.243479) can0 7E8#04410C16C4000000
(1700619559.323613) can0 7E0#0322128C00000000
(1700619559.333975) can0 7E8#0762128C00000440
(1700619559.414537) can0 7DF#02010CAAAAAAAAAA
(1700619559.423477) can0 7E8#04410C166A000000
(1700619559.505375) can0 7E0#0322128C00000000
(1700619559.514109) can0 7E8#0762128C00000356
(1700619559.596261) can0 7DF#02010CAAAAAAAAAA
(1700619559.603474) can0 7E8#04410C1646000000
(1700619559.687116) can0 7E0#0322128C00000000
(1700619559.694080) can0 7E8#0762128C0000037E
(1700619559.778030) can0 7DF#02010CAAAAAAAAAA
(1700619559.783451) can0 7E8#04410C15F8000000
(1700619559.868829) can0 7E0#0322128C00000000
(1700619559.873491) can0 7E8#0762128C0000042A
(1700619559.959765) can0 7DF#02010CAAAAAAAAAA
(1700619559.964073) can0 7E8#04410C16AA000000
(1700619560.050546) can0 7E0#0322128C00000000
(1700619560.054132) can0 7E8#0762128C000005BC
(1700619560.141473) can0 7DF#02010CAAAAAAAAAA
(1700619560.143415) can0 7E8#04410C1618000000
(1700619560.232287) can0 7E0#0322128C00000000
(1700619560.234107) can0 7E8#0762128C00000948
(1700619560.323182) can0 7DF#02010CAAAAAAAAAA
(1700619560.334043) can0 7E8#04410C1730000000
(1700619560.414049) can0 7E0#0322128C00000000
(1700619560.423474) can0 7E8#0762128C00000A6B
(1700619560.504978) can0 7DF#02010CAAAAAAAAAA
(1700619560.514131) can0 7E8#04410C1730000000
(1700619560.595761) can0 7E0#0322128C00000000
(1700619560.603450) can0 7E8#0762128C00000AD6
(1700619560.686672) can0 7DF#02010CAAAAAAAAAA
(1700619560.693533) can0 7E8#04410C1778000000
(1700619560.777511) can0 7E0#0322128C00000000
(1700619560.783473) can0 7E8#0762128C00000AFE
(1700619560.868453) can0 7DF#02010CAAAAAAAAAA
(1700619560.874200) can0 7E8#04410C180C000000
(1700619560.959258) can0 7E0#0322128C00000000
(1700619560.964077) can0 7E8#0762128C00000AD0
(1700619561.050198) can0 7DF#02010CAAAAAAAAAA
(1700619561.053484) can0 7E8#04410C18B0000000
(1700619561.141073) can0 7E0#0322128C00000000
(1700619561.143473) can0 7E8#0762128C00000AC5
(1700619561.231974) can0 7DF#02010CAAAAAAAAAA
(1700619561.234105) can0 7E8#04410C1994000000
(1700619561.322783) can0 7E0#0322128C00000000
(1700619561.333476) can0 7E8#0762128C00000AD5
(1700619561.413705) can0 7DF#02010CAAAAAAAAAA
(1700619561.424012) can0 7E8#04410C19E2000000
(1700619561.504523) can0 7E0#0322128C00000000
(1700619561.513522) can0 7E8#0762128C00000AD8
(1700619561.595468) can0 7DF#02010CAAAAAAAAAA
(1700619561.603371) can0 7E8#04410C1AC2000000
(1700619561.686262) can0 7E0#0322128C00000000
(1700619561.694134) can0 7E8#0762128C00000B2C
(1700619561.777201) can0 7DF#02010CAAAAAAAAAA
(1700619561.783335) can0 7E8#04410C1B18000000
(1700619561.868076) can0 7E0#0322128C00000000
(1700619561.873514) can0 7E8#0762128C00000D7D
(1700619561.958959) can0 7DF#02010CAAAAAAAAAA
(1700619561.963329) can0 7E8#04410C1C2E000000
(1700619562.049757) can0 7E0#0322128C00000000
(1700619562.054171) can0 7E8#0762128C00000E24
(1700619562.140706) can0 7DF#02010CAAAAAAAAAA
(1700619562.143327) can0 7E8#04410C1D3A000000
(1700619562.231516) can0 7E0#0322128C00000000
(1700619562.244032) can0 7E8#0762128C00000EC1
(1700619562.322433) can0 7DF#02010CAAAAAAAAAA
(1700619562.333526) can0 7E8#04410C1E42000000
(1700619562.413253) can0 7E0#0322128C00000000
(1700619562.423366) can0 7E8#0762128C00000E14
(1700619562.504201) can0 7DF#02010CAAAAAAAAAA
(1700619562.513296) can0 7E8#04410C1E42000000
(1700619562.595051) can0 7E0#0322128C00000000
(1700619562.603375) can0 7E8#0762128C00000DB6
(1700619562.685973) can0 7DF#02010CAAAAAAAAAA
(1700619562.694152) can0 7E8#04410C1F6C000000
(1700619562.776756) can0 7E0#0322128C00000000
(1700619562.783355) can0 7E8#0762128C00000E04
(1700619562.867658) can0 7DF#02010CAAAAAAAAAA
(1700619562.873276) can0 7E8#04410C20B2000000
(1700619562.958502) can0 7E0#0322128C00000000
(1700619562.963326) can0 7E8#0762128C00000D96
(1700619563.049416) can0 7DF#02010CAAAAAAAAAA
(1700619563.053493) can0 7E8#04410C21E4000000
(1700619563.140260) can0 7E0#0322128C00000000
(1700619563.143335) can0 7E8#0762128C00000D7C
(1700619563.231210) can0 7DF#02010CAAAAAAAAAA
(1700619563.234282) can0 7E8#04410C231E000000
(1700619563.322053) can0 7E0#0322128C00000000
(1700619563.323327) can0 7E8#0762128C00000D73
(1700619563.412981) can0 7DF#02010CAAAAAAAAAA
(1700619563.423397) can0 7E8#04410C2426000000
(1700619563.503769) can0 7E0#0322128C00000000
(1700619563.513301) can0 7E8#0762128C000005AB
(1700619563.594680) can0 7DF#02010CAAAAAAAAAA
(1700619563.603201) can0 7E8#04410C2436000000
(1700619563.685510) can0 7E0#0322128C00000000
(1700619563.694171) can0 7E8#0762128C000003DF
(1700619563.776428) can0 7DF#02010CAAAAAAAAAA
(1700619563.783227) can0 7E8#04410C217A000000
(1700619563.867255) can0 7E0#0322128C00000000
(1700619563.873306) can0 7E8#0762128C0000034E
(1700619563.958168) can0 7DF#02010CAAAAAAAAAA
(1700619563.963228) can0 7E8#04410C1E2A000000
(1700619564.049016) can0 7E0#0322128C00000000
(1700619564.053525) can0 7E8#0762128C000002FA
(1700619564.139896) can0 7DF#02010CAAAAAAAAAA
(1700619564.143200) can0 7E8#04410C1B18000000
(1700619564.230734) can0 7E0#0322128C00000000
(1700619564.243352) can0 7E8#0762128C000003DD
(1700619564.321636) can0 7DF#02010CAAAAAAAAAA
(1700619564.323200) can0 7E8#04410C198A000000
(1700619564.412457) can0 7E0#0322128C00000000
(1700619564.423248) can0 7E8#0762128C00000AD3
(1700619564.503395) can0 7DF#02010CAAAAAAAAAA
(1700619564.513238) can0 7E8#04410C198A000000
(1700619564.594224) can0 7E0#0322128C00000000
(1700619564.603413) can0 7E8#0762128C00000E0C
(1700619564.685157) can0 7DF#02010CAAAAAAAAAA
(1700619564.693182) can0 7E8#04410C17BE000000
(1700619564.775974) can0 7E0#0322128C00000000
(1700619564.783239) can0 7E8#0762128C00000FF0
(1700619564.866862) can0 7DF#02010CAAAAAAAAAA
(1700619564.873228) can0 7E8#04410C1850000000
(1700619564.957688) can0 7E0#0322128C00000000
(1700619564.963227) can0 7E8#0762128C00001038
(1700619565.048611) can0 7DF#02010CAAAAAAAAAA
(1700619565.053183) can0 7E8#04410C18EE000000
(1700619565.139422) can0 7E0#0322128C00000000
(1700619565.143576) can0 7E8#0762128C00001149
(1700619565.230371) can0 7DF#02010CAAAAAAAAAA
(1700619565.233180) can0 7E8#04410C193A000000
(1700619565.321206) can0 7E0#0322128C00000000
(1700619565.323234) can0 7E8#0762128C0000121B
(1700619565.412155) can0 7DF#02010CAAAAAAAAAA
(1700619565.413223) can0 7E8#04410C1A06000000
(1700619565.502976) can0 7E0#0322128C00000000
(1700619565.513203) can0 7E8#0762128C00001099
(1700619565.593875) can0 7DF#02010CAAAAAAAAAA
(1700619565.603183) can0 7E8#04410C1A8E000000
(1700619565.684724) can0 7E0#0322128C00000000
(1700619565.693204) can0 7E8#0762128C00001014
(1700619565.775631) can0 7DF#02010CAAAAAAAAAA
(1700619565.866473) can0 7E0#0322128C00000000
(1700619565.873204) can0 7E8#0762128C00000F99
(1700619565.957362) can0 7DF#02010CAAAAAAAAAA
(1700619565.963203) can0 7E8#04410C1BBA000000
(1700619566.048223) can0 7E0#0322128C00000000
(1700619566.053185) can0 7E8#0762128C00000F59
(1700619566.139157) can0 7DF#02010CAAAAAAAAAA
(1700619566.143206) can0 7E8#04410C1C54000000
(1700619566.229986) can0 7E0#0322128C00000000
(1700619566.233206) can0 7E8#0762128C00000F36
(1700619566.320868) can0 7DF#02010CAAAAAAAAAA
(1700619566.323178) can0 7E8#04410C1CD2000000
(1700619566.411702) can0 7E0#0322128C00000000
(1700619566.413178) can0 7E8#0762128C00000F17
(1700619566.502609) can0 7DF#02010CAAAAAAAAAA
(1700619566.513178) can0 7E8#04410C1CD2000000
(1700619566.593439) can0 7E0#0322128C00000000
(1700619566.603179) can0 7E8#0762128C00000EFA
(1700619566.684351) can0 7DF#02010CAAAAAAAAAA
(1700619566.693183) can0 7E8#04410C1D96000000
(1700619566.775179) can0 7E0#0322128C00000000
(1700619566.783229) can0 7E8#0762128C00000EEF
(1700619566.866109) can0 7DF#02010CAAAAAAAAAA
(1700619566.873239) can0 7E8#04410C1DFA000000
(1700619566.956981) can0 7E0#0322128C00000000
(1700619566.963181) can0 7E8#0762128C00000EEB
(1700619567.053179) can0 7E8#04410C1E88000000
(1700619567.138630) can0 7E0#0322128C00000000
(1700619567.143407) can0 7E8#0762128C00000EE8
(1700619567.229590) can0 7DF#02010CAAAAAAAAAA
(1700619567.233205) can0 7E8#04410C1F3E000000
(1700619567.320415) can0 7E0#0322128C00000000
(1700619567.323176) can0 7E8#0762128C00000EE4
(1700619567.411330) can0 7DF#02010CAAAAAAAAAA
(1700619567.413225) can0 7E8#04410C1F8E000000
(1700619567.502168) can0 7E0#0322128C00000000
(1700619567.513184) can0 7E8#0762128C00000ED1
(1700619567.593115) can0 7DF#02010CAAAAAAAAAA
(1700619567.603229) can0 7E8#04410C204E000000
(1700619567.683899) can0 7E0#0322128C00000000
(1700619567.693205) can0 7E8#0762128C00000E9D
(1700619567.774802) can0 7DF#02010CAAAAAAAAAA
(1700619567.783302) can0 7E8#04410C20A4000000
(1700619567.865628) can0 7E0#0322128C00000000
(1700619567.873231) can0 7E8#0762128C00000644
(1700619567.956531) can0 7DF#02010CAAAAAAAAAA
(1700619567.963204) can0 7E8#04410C203A000000
(1700619568.047375) can0 7E0#0322128C00000000
(1700619568.053205) can0 7E8#0762128C0000042D
(1700619568.138295) can0 7DF#02010CAAAAAAAAAA
(1700619568.143196) can0 7E8#04410C1E9A000000
(1700619568.229146) can0 7E0#0322128C00000000
(1700619568.233204) can0 7E8#0762128C0000037A
(1700619568.320081) can0 7DF#02010CAAAAAAAAAA
(1700619568.323201) can0 7E8#04410C1C34000000
(1700619568.410852) can0 7E0#0322128C00000000
(1700619568.413232) can0 7E8#0762128C000002FD
(1700619568.501770) can0 7DF#02010CAAAAAAAAAA
(1700619568.503224) can0 7E8#04410C1C34000000
(1700619568.592603) can0 7E0#0322128C00000000
(1700619568.603204) can0 7E8#0762128C000002C2
(1700619568.683500) can0 7DF#02010CAAAAAAAAAA
(1700619568.692978) can0 7E8#04410C1978000000
(1700619568.774325) can0 7E0#0322128C00000000
(1700619568.783257) can0 7E8#0762128C000005E2
(1700619568.865224) can0 7DF#02010CAAAAAAAAAA
(1700619568.872978) can0 7E8#04410C17F6000000
(1700619568.956090) can0 7E0#0322128C00000000
(1700619568.963203) can0 7E8#0762128C000009BC
(1700619569.046977) can0 7DF#02010CAAAAAAAAAA
(1700619569.052978) can0 7E8#04410C1816000000
(1700619569.137782) can0 7E0#0322128C00000000
(1700619569.143196) can0 7E8#0762128C00000C70
(1700619569.228708) can0 7DF#02010CAAAAAAAAAA
(1700619569.232979) can0 7E8#04410C1854000000
(1700619569.319522) can0 7E0#0322128C00000000
(1700619569.323180) can0 7E8#0762128C00000D33
(1700619569.410431) can0 7DF#02010CAAAAAAAAAA
(1700619569.412978) can0 7E8#04410C18B2000000
(1700619569.501257) can0 7E0#0322128C00000000
(1700619569.503236) can0 7E8#0762128C00000DCC
(1700619569.592201) can0 7DF#02010CAAAAAAAAAA
(1700619569.603261) can0 7E8#04410C18C8000000
(1700619569.683052) can0 7E0#0322128C00000000
(1700619569.692979) can0 7E8#0762128C00000E10
(1700619569.773975) can0 7DF#02010CAAAAAAAAAA
(1700619569.782885) can0 7E8#04410C18E0000000
(1700619569.864753) can0 7E0#0322128C00000000
(1700619569.873329) can0 7E8#0762128C00000DE4
(1700619569.955653) can0 7DF#02010CAAAAAAAAAA
(1700619569.962978) can0 7E8#04410C1938000000
(1700619570.046504) can0 7E0#0322128C00000000
(1700619570.053230) can0 7E8#0762128C00000D90
(1700619570.137456) can0 7DF#02010CAAAAAAAAAA
(1700619570.143219) can0 7E8#04410C194E000000
(1700619570.228284) can0 7E0#0322128C00000000
(1700619570.232979) can0 7E8#0762128C00000D40
(1700619570.319224) can0 7DF#02010CAAAAAAAAAA
(1700619570.322850) can0 7E8#04410C1998000000
(1700619570.410082) can0 7E0#0322128C00000000
(1700619570.412978) can0 7E8#0762128C00000CF3
(1700619570.500975) can0 7DF#02010CAAAAAAAAAA
(1700619570.502850) can0 7E8#04410C1998000000
(1700619570.591770) can0 7E0#0322128C00000000
(1700619570.603228) can0 7E8#0762128C00000CBB
(1700619570.682708) can0 7DF#02010CAAAAAAAAAA
(1700619570.692833) can0 7E8#04410C19AC000000
(1700619570.773506) can0 7E0#0322128C00000000
(1700619570.783248) can0 7E8#0762128C00000A9A
(1700619570.864429) can0 7DF#02010CAAAAAAAAAA
(1700619570.872882) can0 7E8#04410C19FC000000
(1700619570.955242) can0 7E0#0322128C00000000
(1700619570.963201) can0 7E8#0762128C00000A3B
(1700619571.046179) can0 7DF#02010CAAAAAAAAAA
(1700619571.052830) can0 7E8#04410C1A20000000
(1700619571.136981) can0 7E0#0322128C00000000
(1700619571.142868) can0 7E8#0762128C00000A71
(1700619571.227896) can0 7DF#02010CAAAAAAAAAA
(1700619571.232806) can0 7E8#04410C1A48000000
(1700619571.318724) can0 7E0#0322128C00000000
(1700619571.322854) can0 7E8#0762128C00000AA2
(1700619571.409618) can0 7DF#02010CAAAAAAAAAA
(1700619571.413286) can0 7E8#04410C1A8E000000
(1700619571.500457) can0 7E0#0322128C00000000
(1700619571.502851) can0 7E8#0762128C00000A4F
(1700619571.591348) can0 7DF#02010CAAAAAAAAAA
(1700619571.592792) can0 7E8#04410C1AA0000000
(1700619571.682181) can0 7E0#0322128C00000000
(1700619571.693228) can0 7E8#0762128C00000A94
(1700619571.773101) can0 7DF#02010CAAAAAAAAAA
(1700619571.782776) can0 7E8#04410C1B06000000
(1700619571.863880) can0 7E0#0322128C00000000
(1700619571.872856) can0 7E8#0762128C00000A26
(1700619571.954764) can0 7DF#02010CAAAAAAAAAA
(1700619571.962979) can0 7E8#04410C1B10000000
(1700619572.045612) can0 7E0#0322128C00000000
(1700619572.052832) can0 7E8#0762128C000004DD
(1700619572.136530) can0 7DF#02010CAAAAAAAAAA
(1700619572.142740) can0 7E8#04410C1B0E000000
(1700619572.227371) can0 7E0#0322128C00000000
(1700619572.232829) can0 7E8#0762128C000003AF
(1700619572.318280) can0 7DF#02010CAAAAAAAAAA
(1700619572.323246) can0 7E8#04410C1896000000
(1700619572.409143) can0 7E0#0322128C00000000
(1700619572.412794) can0 7E8#0762128C000002E7
(1700619572.500049) can0 7DF#02010CAAAAAAAAAA
(1700619572.502975) can0 7E8#04410C1896000000
(1700619572.590851) can0 7E0#0322128C00000000
(1700619572.593017) can0 7E8#0762128C00000261
(1700619572.681743) can0 7DF#02010CAAAAAAAAAA
(1700619572.682733) can0 7E8#04410C15FA000000
(1700619572.772601) can0 7E0#0322128C00000000
(1700619572.782786) can0 7E8#0762128C0000021F
(1700619572.863501) can0 7DF#02010CAAAAAAAAAA
(1700619572.872978) can0 7E8#04410C128C000000
(1700619572.954315) can0 7E0#0322128C00000000
(1700619572.962766) can0 7E8#0762128C0000029D
(1700619573.045234) can0 7DF#02010CAAAAAAAAAA
(1700619573.052704) can0 7E8#04410C1134000000
(1700619573.136106) can0 7E0#0322128C00000000
(1700619573.142759) can0 7E8#0762128C0000061E
(1700619573.226984) can0 7DF#02010CAAAAAAAAAA
(1700619573.232703) can0 7E8#04410C165A000000
(1700619573.317798) can0 7E0#0322128C00000000
(1700619573.322746) can0 7E8#0762128C000007FF
(1700619573.408703) can0 7DF#02010CAAAAAAAAAA
(1700619573.412683) can0 7E8#04410C15A8000000
(1700619573.499533) can0 7E0#0322128C00000000
(1700619573.502733) can0 7E8#0762128C000008A1
(1700619573.590435) can0 7DF#02010CAAAAAAAAAA
(1700619573.592885) can0 7E8#04410C152E000000
(1700619573.681250) can0 7E0#0322128C00000000
(1700619573.682868) can0 7E8#0762128C0000092B
(1700619573.772181) can0 7DF#02010CAAAAAAAAAA
(1700619573.782660) can0 7E8#04410C1572000000
(1700619573.863012) can0 7E0#0322128C00000000
(1700619573.872726) can0 7E8#0762128C0000095D
(1700619573.953960) can0 7DF#02010CAAAAAAAAAA
(1700619573.962649) can0 7E8#04410C1566000000
(1700619574.044732) can0 7E0#0322128C00000000
(1700619574.052979) can0 7E8#0762128C000009AB
(1700619574.135665) can0 7DF#02010CAAAAAAAAAA
(1700619574.142821) can0 7E8#04410C157A000000
(1700619574.226494) can0 7E0#0322128C00000000
(1700619574.232730) can0 7E8#0762128C000009C4
(1700619574.317385) can0 7DF#02010CAAAAAAAAAA
(1700619574.322632) can0 7E8#04410C159A000000
(1700619574.408224) can0 7E0#0322128C00000000
(1700619574.412705) can0 7E8#0762128C00000A03
(1700619574.499178) can0 7DF#02010CAAAAAAAAAA
(1700619574.502613) can0 7E8#04410C159A000000
(1700619574.589974) can0 7E0#0322128C00000000
(1700619574.592707) can0 7E8#0762128C00000A10
(1700619574.680881) can0 7DF#02010CAAAAAAAAAA
(1700619574.682792) can0 7E8#04410C15B0000000
(1700619574.771700) can0 7E0#0322128C00000000
(1700619574.782665) can0 7E8#0762128C000009DB
(1700619574.862629) can0 7DF#02010CAAAAAAAAAA
(1700619574.872621) can0 7E8#04410C15B0000000
(1700619574.953437) can0 7E0#0322128C00000000
(1700619574.962651) can0 7E8#0762128C00000993
(1700619575.044360) can0 7DF#02010CAAAAAAAAAA
(1700619575.052585) can0 7E8#04410C15DC000000
(1700619575.135184) can0 7E0#0322128C00000000
(1700619575.142644) can0 7E8#0762128C0000096F
(1700619575.226126) can0 7DF#02010CAAAAAAAAAA
(1700619575.232580) can0 7E8#04410C15C6000000
(1700619575.316976) can0 7E0#0322128C00000000
(1700619575.322646) can0 7E8#0762128C00000954
(1700619575.407825) can0 7DF#02010CAAAAAAAAAA
(1700619575.412979) can0 7E8#04410C1608000000
(1700619575.498648) can0 7E0#0322128C00000000
(1700619575.502613) can0 7E8#0762128C000009C2
(1700619575.589579) can0 7DF#02010CAAAAAAAAAA
(1700619575.592579) can0 7E8#04410C15F8000000
(1700619575.680400) can0 7E0#0322128C00000000
(1700619575.682609) can0 7E8#0762128C00000A1E
(1700619575.771301) can0 7DF#02010CAAAAAAAAAA
(1700619575.772762) can0 7E8#04410C160E000000
(1700619575.862151) can0 7E0#0322128C00000000
(1700619575.872637) can0 7E8#0762128C00000A18
(1700619575.953057) can0 7DF#02010CAAAAAAAAAA
(1700619575.962618) can0 7E8#04410C161C000000
(1700619576.044047) can0 7E0#0322128C00000000
(1700619576.052605) can0 7E8#0762128C0000095A
(1700619576.134748) can0 7DF#02010CAAAAAAAAAA
(1700619576.142668) can0 7E8#04410C163A000000
(1700619576.225585) can0 7E0#0322128C00000000
(1700619576.232606) can0 7E8#0762128C000008E7
(1700619576.316484) can0 7DF#02010CAAAAAAAAAA
(1700619576.322517) can0 7E8#04410C1638000000
(1700619576.407325) can0 7E0#0322128C00000000
(1700619576.412580) can0 7E8#0762128C00000869
(1700619576.498222) can0 7DF#02010CAAAAAAAAAA
(1700619576.502507) can0 7E8#04410C1638000000
(1700619576.589075) can0 7E0#0322128C00000000
(1700619576.592579) can0 7E8#0762128C000007E3
(1700619576.679974) can0 7DF#02010CAAAAAAAAAA
(1700619576.682492) can0 7E8#04410C164C000000
(1700619576.770767) can0 7E0#0322128C00000000
(1700619576.772553) can0 7E8#0762128C00000789
(1700619576.861702) can0 7DF#02010CAAAAAAAAAA
(1700619576.872504) can0 7E8#04410C1666000000
(1700619576.952509) can0 7E0#0322128C00000000
(1700619576.962525) can0 7E8#0762128C000007A7
(1700619577.043425) can0 7DF#02010CAAAAAAAAAA
(1700619577.052477) can0 7E8#04410C165E000000
(1700619577.134252) can0 7E0#0322128C00000000
(1700619577.142767) can0 7E8#0762128C00000767
(1700619577.225234) can0 7DF#02010CAAAAAAAAAA
(1700619577.232482) can0 7E8#04410C1674000000
(1700619577.316039) can0 7E0#0322128C00000000
(1700619577.322502) can0 7E8#0762128C00000714
(1700619577.406909) can0 7DF#02010CAAAAAAAAAA
(1700619577.412472) can0 7E8#04410C166E000000
(1700619577.497738) can0 7E0#0322128C00000000
(1700619577.502504) can0 7E8#0762128C000006D6
(1700619577.588667) can0 7DF#02010CAAAAAAAAAA
(1700619577.592450) can0 7E8#04410C1676000000
(1700619577.679498) can0 7E0#0322128C00000000
(1700619577.682697) can0 7E8#0762128C000006B1
(1700619577.770376) can0 7DF#02010CAAAAAAAAAA
(1700619577.772455) can0 7E8#04410C1670000000
(1700619577.861222) can0 7E0#0322128C00000000
(1700619577.862499) can0 7E8#0762128C00000694
(1700619577.952158) can0 7DF#02010CAAAAAAAAAA
(1700619577.962409) can0 7E8#04410C167A000000
(1700619578.042980) can0 7E0#0322128C00000000
(1700619578.052480) can0 7E8#0762128C0000066E
(1700619578.133903) can0 7DF#02010CAAAAAAAAAA
(1700619578.142640) can0 7E8#04410C1676000000
(1700619578.224738) can0 7E0#0322128C00000000
(1700619578.232492) can0 7E8#0762128C00000659
(1700619578.315635) can0 7DF#02010CAAAAAAAAAA
(1700619578.322402) can0 7E8#04410C166C000000
(1700619578.406479) can0 7E0#0322128C00000000
(1700619578.412474) can0 7E8#0762128C0000066C
(1700619578.497377) can0 7DF#02010CAAAAAAAAAA
(1700619578.502391) can0 7E8#04410C166C000000
(1700619578.588224) can0 7E0#0322128C00000000
(1700619578.592450) can0 7E8#0762128C00000635
(1700619578.679159) can0 7DF#02010CAAAAAAAAAA
(1700619578.682527) can0 7E8#04410C1680000000
(1700619578.769973) can0 7E0#0322128C00000000
(1700619578.772449) can0 7E8#0762128C0000062C
(1700619578.860867) can0 7DF#02010CAAAAAAAAAA
(1700619578.862371) can0 7E8#04410C167C000000
(1700619578.951706) can0 7E0#0322128C00000000
(1700619578.962426) can0 7E8#0762128C000006D0
(1700619579.042625) can0 7DF#02010CAAAAAAAAAA
(1700619579.052370) can0 7E8#04410C167E000000
(1700619579.133452) can0 7E0#0322128C00000000
(1700619579.142622) can0 7E8#0762128C00000723
(1700619579.224379) can0 7DF#02010CAAAAAAAAAA
(1700619579.232352) can0 7E8#04410C166A000000
(1700619579.315201) can0 7E0#0322128C00000000
(1700619579.322412) can0 7E8#0762128C00000755
(1700619579.406144) can0 7DF#02010CAAAAAAAAAA
(1700619579.412351) can0 7E8#04410C1680000000
(1700619579.496975) can0 7E0#0322128C00000000
(1700619579.502401) can0 7E8#0762128C0000076B
(1700619579.587845) can0 7DF#02010CAAAAAAAAAA
(1700619579.592399) can0 7E8#04410C166C000000
(1700619579.678642) can0 7E0#0322128C00000000
(1700619579.682385) can0 7E8#0762128C000007C8
(1700619579.769599) can0 7DF#02010CAAAAAAAAAA
(1700619579.772326) can0 7E8#04410C167E000000
(1700619579.860408) can0 7E0#0322128C00000000
(1700619579.862388) can0 7E8#0762128C000007D1
(1700619579.951312) can0 7DF#02010CAAAAAAAAAA
(1700619579.952311) can0 7E8#04410C167A000000
(1700619580.042168) can0 7E0#0322128C00000000
(1700619580.052370) can0 7E8#0762128C000007CB
(1700619580.133124) can0 7DF#02010CAAAAAAAAAA
(1700619580.142303) can0 7E8#04410C1676000000
(1700619580.223978) can0 7E0#0322128C00000000
(1700619580.232370) can0 7E8#0762128C000007DE
(1700619580.314854) can0 7DF#02010CAAAAAAAAAA
(1700619580.322533) can0 7E8#04410C1670000000
(1700619580.405677) can0 7E0#0322128C00000000
(1700619580.412353) can0 7E8#0762128C00000831
(1700619580.496600) can0 7DF#02010CAAAAAAAAAA
(1700619580.502296) can0 7E8#04410C1670000000
(1700619580.587425) can0 7E0#0322128C00000000
(1700619580.592349) can0 7E8#0762128C00000843
(1700619580.678334) can0 7DF#02010CAAAAAAAAAA
(1700619580.682282) can0 7E8#04410C1680000000
(1700619580.769173) can0 7E0#0322128C00000000
(1700619580.772637) can0 7E8#0762128C00000867
(1700619580.860109) can0 7DF#02010CAAAAAAAAAA
(1700619580.862269) can0 7E8#04410C16A0000000
(1700619580.950956) can0 7E0#0322128C00000000
(1700619580.952307) can0 7E8#0762128C0000086B
(1700619581.041832) can0 7DF#02010CAAAAAAAAAA
(1700619581.052253) can0 7E8#04410C167A000000
(1700619581.132646) can0 7E0#0322128C00000000
(1700619581.142307) can0 7E8#0762128C00000839
(1700619581.223556) can0 7DF#02010CAAAAAAAAAA
(1700619581.232234) can0 7E8#04410C1690000000
(1700619581.314383) can0 7E0#0322128C00000000
(1700619581.322326) can0 7E8#0762128C000004D2
(1700619581.405277) can0 7DF#02010CAAAAAAAAAA
(1700619581.412234) can0 7E8#04410C167A000000
(1700619581.496129) can0 7E0#0322128C00000000
(1700619581.502450) can0 7E8#0762128C00000359
(1700619581.587048) can0 7DF#02010CAAAAAAAAAA
(1700619581.592225) can0 7E8#04410C1678000000
(1700619581.677853) can0 7E0#0322128C00000000
(1700619581.682281) can0 7E8#0762128C00000266
(1700619581.768752) can0 7DF#02010CAAAAAAAAAA
(1700619581.772301) can0 7E8#04410C164A000000
(1700619581.859574) can0 7E0#0322128C00000000
(1700619581.862286) can0 7E8#0762128C00000209
(1700619581.950483) can0 7DF#02010CAAAAAAAAAA
(1700619581.952336) can0 7E8#04410C15F4000000
(1700619582.041307) can0 7E0#0322128C00000000
(1700619582.052261) can0 7E8#0762128C000001DB
(1700619582.132224) can0 7DF#02010CAAAAAAAAAA
(1700619582.142204) can0 7E8#04410C1632000000
(1700619582.223083) can0 7E0#0322128C00000000
(1700619582.232274) can0 7E8#0762128C000001BC
(1700619582.313979) can0 7DF#02010CAAAAAAAAAA
(1700619582.322204) can0 7E8#04410C1606000000
(1700619582.404777) can0 7E0#0322128C00000000
(1700619582.412254) can0 7E8#0762128C000001A4
(1700619582.495699) can0 7DF#02010CAAAAAAAAAA
(1700619582.502178) can0 7E8#04410C1606000000
(1700619582.586521) can0 7E0#0322128C00000000
(1700619582.592227) can0 7E8#0762128C000002C9
(1700619582.677455) can0 7DF#02010CAAAAAAAAAA
(1700619582.682178) can0 7E8#04410C15EA000000
(1700619582.768276) can0 7E0#0322128C00000000
(1700619582.772483) can0 7E8#0762128C00000496
(1700619582.859174) can0 7DF#02010CAAAAAAAAAA
(1700619582.862174) can0 7E8#04410C1632000000
(1700619582.950020) can0 7E0#0322128C00000000
(1700619582.952344) can0 7E8#0762128C000005F3
(1700619583.040962) can0 7DF#02010CAAAAAAAAAA
(1700619583.042165) can0 7E8#04410C15FE000000
(1700619583.131751) can0 7E0#0322128C00000000
(1700619583.142202) can0 7E8#0762128C0000063E
(1700619583.222696) can0 7DF#02010CAAAAAAAAAA
(1700619583.232497) can0 7E8#04410C15BC000000
(1700619583.313505) can0 7E0#0322128C00000000
(1700619583.322183) can0 7E8#0762128C00000661
(1700619583.404409) can0 7DF#02010CAAAAAAAAAA
(1700619583.412149) can0 7E8#04410C15A0000000
(1700619583.495231) can0 7E0#0322128C00000000
(1700619583.502381) can0 7E8#0762128C00000670
(1700619583.586186) can0 7DF#02010CAAAAAAAAAA
(1700619583.592152) can0 7E8#04410C15A6000000
(1700619583.676992) can0 7E0#0322128C00000000
(1700619583.682183) can0 7E8#0762128C000006AB
(1700619583.767876) can0 7DF#02010CAAAAAAAAAA
(1700619583.772137) can0 7E8#04410C15B4000000
(1700619583.858701) can0 7E0#0322128C00000000
(1700619583.862182) can0 7E8#0762128C0000075C
(1700619583.949610) can0 7DF#02010CAAAAAAAAAA
(1700619583.952105) can0 7E8#04410C15A0000000
(1700619584.040461) can0 7E0#0322128C00000000
(1700619584.042291) can0 7E8#0762128C00000810
(1700619584.131360) can0 7DF#02010CAAAAAAAAAA
(1700619584.132475) can0 7E8#04410C15AA000000
(1700619584.222210) can0 7E0#0322128C00000000
(1700619584.232175) can0 7E8#0762128C0000085F
(1700619584.313111) can0 7DF#02010CAAAAAAAAAA
(1700619584.322107) can0 7E8#04410C15C2000000
(1700619584.403905) can0 7E0#0322128C00000000
(1700619584.412356) can0 7E8#0762128C000008AE
(1700619584.494802) can0 7DF#02010CAAAAAAAAAA
(1700619584.502103) can0 7E8#04410C15C2000000
(1700619584.585631) can0 7E0#0322128C00000000
(1700619584.592147) can0 7E8#0762128C000008CD
(1700619584.676542) can0 7DF#02010CAAAAAAAAAA
(1700619584.682080) can0 7E8#04410C15AC000000
(1700619584.767360) can0 7E0#0322128C00000000
(1700619584.772132) can0 7E8#0762128C000008BC
(1700619584.858272) can0 7DF#02010CAAAAAAAAAA
(1700619584.862079) can0 7E8#04410C15BC000000
(1700619584.949215) can0 7E0#0322128C00000000
(1700619584.952434) can0 7E8#0762128C0000086D
(1700619585.040057) can0 7DF#02010CAAAAAAAAAA
(1700619585.042049) can0 7E8#04410C15C4000000
(1700619585.130836) can0 7E0#0322128C00000000
(1700619585.132128) can0 7E8#0762128C0000085E
(1700619585.221755) can0 7DF#02010CAAAAAAAAAA
(1700619585.232108) can0 7E8#04410C15BE000000
(1700619585.312577) can0 7E0#0322128C00000000
(1700619585.322107) can0 7E8#0762128C00000854
(1700619585.403476) can0 7DF#02010CAAAAAAAAAA
(1700619585.412047) can0 7E8#04410C15EC000000
(1700619585.494293) can0 7E0#0322128C00000000
(1700619585.502104) can0 7E8#0762128C0000083B
(1700619585.585204) can0 7DF#02010CAAAAAAAAAA
(1700619585.592204) can0 7E8#04410C15E8000000
(1700619585.676053) can0 7E0#0322128C00000000
(1700619585.682272) can0 7E8#0762128C00000810
(1700619585.766974) can0 7DF#02010CAAAAAAAAAA
(1700619585.772015) can0 7E8#04410C15EE000000
(1700619585.857744) can0 7E0#0322128C00000000
(1700619585.862079) can0 7E8#0762128C000004FA
(1700619585.948631) can0 7DF#02010CAAAAAAAAAA
(1700619585.951956) can0 7E8#04410C15F2000000
(1700619586.039464) can0 7E0#0322128C00000000
(1700619586.042243) can0 7E8#0762128C00000392
(1700619586.130384) can0 7DF#02010CAAAAAAAAAA
(1700619586.132084) can0 7E8#04410C15D6000000
(1700619586.221231) can0 7E0#0322128C00000000
(1700619586.232041) can0 7E8#0762128C00000287
(1700619586.312182) can0 7DF#02010CAAAAAAAAAA
(1700619586.322181) can0 7E8#04410C1596000000
(1700619586.403012) can0 7E0#0322128C00000000
(1700619586.412376) can0 7E8#0762128C00000218
(1700619586.493902) can0 7DF#02010CAAAAAAAAAA
(1700619586.501979) can0 7E8#04410C1596000000
(1700619586.584732) can0 7E0#0322128C00000000
(1700619586.592033) can0 7E8#0762128C000001C8
(1700619586.675640) can0 7DF#02010CAAAAAAAAAA
(1700619586.681978) can0 7E8#04410C15B8000000
(1700619586.766475) can0 7E0#0322128C00000000
(1700619586.772033) can0 7E8#0762128C000001A8
(1700619586.857371) can0 7DF#02010CAAAAAAAAAA
(1700619586.861978) can0 7E8#04410C1598000000
(1700619586.948200) can0 7E0#0322128C00000000
(1700619586.952103) can0 7E8#0762128C000001A7
(1700619587.039155) can0 7DF#02010CAAAAAAAAAA
(1700619587.042227) can0 7E8#04410C1560000000
(1700619587.129980) can0 7E0#0322128C00000000
(1700619587.132023) can0 7E8#0762128C000001DD
(1700619587.220849) can0 7DF#02010CAAAAAAAAAA
(1700619587.221974) can0 7E8#04410C1548000000
(1700619587.311699) can0 7E0#0322128C00000000
(1700619587.321983) can0 7E8#0762128C00000212
(1700619587.402586) can0 7DF#02010CAAAAAAAAAA
(1700619587.411883) can0 7E8#04410C153C000000
(1700619587.493424) can0 7E0#0322128C00000000
(1700619587.502171) can0 7E8#0762128C000001B6
(1700619587.584332) can0 7DF#02010CAAAAAAAAAA
(1700619587.592115) can0 7E8#04410C151A000000
(1700619587.675170) can0 7E0#0322128C00000000
(1700619587.682146) can0 7E8#0762128C00000000
(1700619587.766074) can0 7DF#02010CAAAAAAAAAA
(1700619587.772228) can0 7E8#04410C1504000000
(1700619587.856851) can0 7E0#0322128C00000000
(1700619587.862204) can0 7E8#0762128C00000000
(1700619587.947727) can0 7DF#02010CAAAAAAAAAA
(1700619587.951834) can0 7E8#04410C14CA000000
(1700619588.038569) can0 7E0#0322128C00000000
(1700619588.041978) can0 7E8#0762128C00000417
(1700619588.129502) can0 7DF#02010CAAAAAAAAAA
(1700619588.131853) can0 7E8#04410C14D2000000
(1700619588.220326) can0 7E0#0322128C00000000
(1700619588.222169) can0 7E8#0762128C000005C1
(1700619588.311240) can0 7DF#02010CAAAAAAAAAA
(1700619588.321859) can0 7E8#04410C1546000000
(1700619588.402100) can0 7E0#0322128C00000000
(1700619588.411904) can0 7E8#0762128C00000A98
(1700619588.493017) can0 7DF#02010CAAAAAAAAAA
(1700619588.501830) can0 7E8#04410C1546000000
(1700619588.583825) can0 7E0#0322128C00000000
(1700619588.591890) can0 7E8#0762128C00000CD1
(1700619588.674740) can0 7DF#02010CAAAAAAAAAA
(1700619588.681829) can0 7E8#04410C14B2000000
(1700619588.765574) can0 7E0#0322128C00000000
(1700619588.771879) can0 7E8#0762128C00000E6E
(1700619588.856502) can0 7DF#02010CAAAAAAAAAA
(1700619588.861829) can0 7E8#04410C14F6000000
(1700619588.947319) can0 7E0#0322128C00000000
(1700619588.951847) can0 7E8#0762128C00000E78
(1700619589.038208) can0 7DF#02010CAAAAAAAAAA
(1700619589.041802) can0 7E8#04410C14E0000000
(1700619589.129100) can0 7E0#0322128C00000000
(1700619589.131863) can0 7E8#0762128C00000BC1
(1700619589.220027) can0 7DF#02010CAAAAAAAAAA
(1700619589.221793) can0 7E8#04410C1528000000
(1700619589.310836) can0 7E0#0322128C00000000
(1700619589.311873) can0 7E8#0762128C00000A02
(1700619589.401728) can0 7DF#02010CAAAAAAAAAA
(1700619589.411781) can0 7E8#04410C1526000000
(1700619589.492544) can0 7E0#0322128C00000000
(1700619589.502205) can0 7E8#0762128C0000095F
(1700619589.583473) can0 7DF#02010CAAAAAAAAAA
(1700619589.591768) can0 7E8#04410C152C000000
(1700619589.674302) can0 7E0#0322128C00000000
(1700619589.681834) can0 7E8#0762128C000009AF
(1700619589.765200) can0 7DF#02010CAAAAAAAAAA
(1700619589.771757) can0 7E8#04410C1554000000
(1700619589.856051) can0 7E0#0322128C00000000
(1700619589.861829) can0 7E8#0762128C00000938
(1700619589.946958) can0 7DF#02010CAAAAAAAAAA
(1700619589.951963) can0 7E8#04410C1566000000
(1700619590.037756) can0 7E0#0322128C00000000
(1700619590.042203) can0 7E8#0762128C000008FA
(1700619590.128669) can0 7DF#02010CAAAAAAAAAA
(1700619590.131745) can0 7E8#04410C1578000000
(1700619590.219512) can0 7E0#0322128C00000000
(1700619590.221792) can0 7E8#0762128C00000876
(1700619590.310410) can0 7DF#02010CAAAAAAAAAA
(1700619590.321723) can0 7E8#04410C1584000000
(1700619590.401244) can0 7E0#0322128C00000000
(1700619590.411812) can0 7E8#0762128C000007F5
(1700619590.492177) can0 7DF#02010CAAAAAAAAAA
(1700619590.501777) can0 7E8#04410C1584000000
(1700619590.583032) can0 7E0#0322128C00000000
(1700619590.591775) can0 7E8#0762128C00000674
(1700619590.673901) can0 7DF#02010CAAAAAAAAAA
(1700619590.681728) can0 7E8#04410C1576000000
(1700619590.764724) can0 7E0#0322128C00000000
(1700619590.771768) can0 7E8#0762128C00000666
(1700619590.855645) can0 7DF#02010CAAAAAAAAAA
(1700619590.861704) can0 7E8#04410C157C000000
(1700619590.946458) can0 7E0#0322128C00000000
(1700619590.951735) can0 7E8#0762128C0000061A
(1700619591.037388) can0 7DF#02010CAAAAAAAAAA
(1700619591.041904) can0 7E8#04410C1582000000
(1700619591.128225) can0 7E0#0322128C00000000
(1700619591.132152) can0 7E8#0762128C0000062B
(1700619591.219173) can0 7DF#02010CAAAAAAAAAA
(1700619591.221700) can0 7E8#04410C1582000000
(1700619591.309975) can0 7E0#0322128C00000000
(1700619591.321731) can0 7E8#0762128C00000637
(1700619591.400864) can0 7DF#02010CAAAAAAAAAA
(1700619591.401976) can0 7E8#04410C157E000000
(1700619591.491677) can0 7E0#0322128C00000000
(1700619591.502154) can0 7E8#0762128C00000634
(1700619591.582613) can0 7DF#02010CAAAAAAAAAA
(1700619591.591652) can0 7E8#04410C1588000000
(1700619591.673450) can0 7E0#0322128C00000000
(1700619591.681728) can0 7E8#0762128C0000063F
(1700619591.771974) can0 7E8#04410C1588000000
(1700619591.855165) can0 7E0#0322128C00000000
(1700619591.861729) can0 7E8#0762128C00000746
(1700619591.946121) can0 7DF#02010CAAAAAAAAAA
(1700619591.951626) can0 7E8#04410C1580000000
(1700619592.036976) can0 7E0#0322128C00000000
(1700619592.041706) can0 7E8#0762128C00000815
(1700619592.127830) can0 7DF#02010CAAAAAAAAAA
